freq[Hz];re:Trc1_S11;im:Trc1_S11;
6.600000000000000E+009;5.817869901657105E-001;5.098791259181810E-001;
6.601000500250125E+009;6.065673232078552E-001;4.821026804270360E-001;
6.602001000500250E+009;6.257576346397400E-001;4.575110112890587E-001;
6.603001500750375E+009;6.491290926933289E-001;4.319976647206774E-001;
6.604002001000501E+009;6.669787764549255E-001;4.078868319648428E-001;
6.605002501250626E+009;6.844266653060913E-001;3.741555124359892E-001;
6.606003001500751E+009;7.020877599716187E-001;3.458811283014557E-001;
6.607003501750876E+009;7.143015861511231E-001;3.142345013142583E-001;
6.608004002001000E+009;7.317067384719849E-001;2.885699064434842E-001;
6.609004502251125E+009;7.440441846847534E-001;2.541900497205281E-001;
6.610005002501250E+009;7.551259398460388E-001;2.219149716414120E-001;
6.611005502751376E+009;7.633913159370422E-001;1.913119831399150E-001;
6.612006003001501E+009;7.724167704582214E-001;1.590814250633300E-001;
6.613006503251626E+009;7.802456021308899E-001;1.303953391863361E-001;
6.614007003501751E+009;7.901524305343628E-001;9.776968297399341E-002;
6.615007503751876E+009;7.936439514160156E-001;6.691374083737355E-002;
6.616008004002001E+009;7.968465089797974E-001;3.716050982622484E-002;
6.617008504252126E+009;8.003033995628357E-001;1.915785704957665E-003;
6.618009004502251E+009;7.993159890174866E-001;-2.863149539525380E-002;
6.619009504752377E+009;7.989689707756043E-001;-5.700014161672848E-002;
6.620010005002502E+009;7.979373931884766E-001;-9.065219660532974E-002;
6.621010505252626E+009;7.957655787467957E-001;-1.214664160730833E-001;
6.622011005502751E+009;7.922378182411194E-001;-1.514346114961317E-001;
6.623011505752876E+009;7.877573966979981E-001;-1.812170882315426E-001;
6.624012006003001E+009;7.818226814270020E-001;-2.115617893609387E-001;
6.625012506253126E+009;7.753782272338867E-001;-2.409801508505586E-001;
6.626013006503252E+009;7.650903463363648E-001;-2.728381592190124E-001;
6.627013506753377E+009;7.575224637985230E-001;-3.017884144094852E-001;
6.628014007003502E+009;7.476384639739990E-001;-3.300603928313658E-001;
6.629014507253627E+009;7.362315654754639E-001;-3.563991841015276E-001;
6.630015007503752E+009;7.244910597801209E-001;-3.835191552708130E-001;
6.631015507753877E+009;7.091690301895142E-001;-4.122353381451238E-001;
6.632016008004002E+009;6.951145529747009E-001;-4.377325098330173E-001;
6.633016508254128E+009;6.825714111328125E-001;-4.644046441170959E-001;
6.634017008504252E+009;6.649511456489563E-001;-4.880100631006942E-001;
6.635017508754377E+009;6.514198184013367E-001;-5.110300572301108E-001;
6.636018009004502E+009;6.312436461448669E-001;-5.344758905126431E-001;
6.637018509254627E+009;6.120171546936035E-001;-5.576149634134089E-001;
6.638019009504752E+009;5.945397615432739E-001;-5.796460955202559E-001;
6.639019509754877E+009;5.739175081253052E-001;-6.009258517741609E-001;
6.640020010005003E+009;5.523320436477661E-001;-6.210504500262788E-001;
6.641020510255128E+009;5.298661589622498E-001;-6.415675524813486E-001;
6.642021010505253E+009;5.097293853759766E-001;-6.609412983115005E-001;
6.643021510755378E+009;4.882459342479706E-001;-6.763118970855278E-001;
6.644022011005503E+009;4.641133248806000E-001;-6.955726009694137E-001;
6.645022511255628E+009;4.408713281154633E-001;-7.110782575851072E-001;
6.646023011505753E+009;4.167745113372803E-001;-7.277012369485177E-001;
6.647023511755878E+009;3.913316428661346E-001;-7.419891075064358E-001;
6.648024012006003E+009;3.668522536754608E-001;-7.579928620381993E-001;
6.649024512256128E+009;3.411797881126404E-001;-7.683757442900717E-001;
6.650025012506253E+009;3.135187029838562E-001;-7.813522414184050E-001;
6.651025512756378E+009;2.880049347877502E-001;-7.925207537277493E-001;
6.652026013006503E+009;2.619336545467377E-001;-8.017398358073740E-001;
6.653026513256628E+009;2.346115261316299E-001;-8.094475263633002E-001;
6.654027013506753E+009;2.078492790460587E-001;-8.185690080041503E-001;
6.655027513756879E+009;1.784885823726654E-001;-8.237239879433206E-001;
6.656028014007004E+009;1.519028246402741E-001;-8.312938783861612E-001;
6.657028514257129E+009;1.234291344881058E-001;-8.375665571523157E-001;
6.658029014507254E+009;9.532277286052704E-002;-8.395291317715583E-001;
6.659029514757379E+009;6.645950675010681E-002;-8.439514939425733E-001;
6.660030015007504E+009;3.812845051288605E-002;-8.453665967430091E-001;
6.661030515257628E+009;9.433262050151825E-003;-8.473151515435419E-001;
6.662031015507754E+009;-1.976280659437180E-002;-8.479669334202730E-001;
6.663031515757879E+009;-4.890883341431618E-002;-8.476146763422612E-001;
6.664032016008004E+009;-7.904674857854843E-002;-8.446252777795215E-001;
6.665032516258129E+009;-1.090551987290382E-001;-8.436832424594236E-001;
6.666033016508254E+009;-1.339986324310303E-001;-8.395741022633778E-001;
6.667033516758379E+009;-1.631619334220886E-001;-8.349507642380727E-001;
6.668034017008504E+009;-1.918476372957230E-001;-8.299886015512159E-001;
6.669034517258629E+009;-2.206394523382187E-001;-8.211482721109714E-001;
6.670035017508755E+009;-2.476786971092224E-001;-8.137904364274361E-001;
6.671035517758880E+009;-2.760659456253052E-001;-8.060674697199753E-001;
6.672036018009005E+009;-3.037349879741669E-001;-7.954588831771619E-001;
6.673036518259130E+009;-3.324755132198334E-001;-7.829647457605429E-001;
6.674037018509255E+009;-3.575944900512695E-001;-7.723953534299409E-001;
6.675037518759379E+009;-3.862893581390381E-001;-7.614714752439067E-001;
6.676038019009504E+009;-4.104573428630829E-001;-7.467832246602875E-001;
6.677038519259630E+009;-4.363489449024200E-001;-7.304644845184055E-001;
6.678039019509755E+009;-4.619581103324890E-001;-7.141271038462150E-001;
6.679039519759880E+009;-4.879283905029297E-001;-6.995364476474292E-001;
6.680040020010005E+009;-5.122945904731751E-001;-6.819918327278957E-001;
6.681040520260130E+009;-5.342476367950440E-001;-6.606775867350079E-001;
6.682041020510255E+009;-5.595837831497192E-001;-6.413116397087079E-001;
6.683041520760380E+009;-5.787737965583801E-001;-6.210910241304538E-001;
6.684042021010506E+009;-6.015200018882752E-001;-6.005206503507676E-001;
6.685042521260631E+009;-6.215419173240662E-001;-5.773186517451532E-001;
6.686043021510756E+009;-6.421518325805664E-001;-5.572395152825460E-001;
6.687043521760881E+009;-6.606272459030151E-001;-5.301651038835318E-001;
6.688044022011005E+009;-6.815979480743408E-001;-5.091796065946261E-001;
6.689044522261130E+009;-7.005149722099304E-001;-4.814813979529772E-001;
6.690045022511255E+009;-7.171021103858948E-001;-4.548413665395345E-001;
6.691045522761381E+009;-7.323575019836426E-001;-4.303631274343121E-001;
6.692046023011506E+009;-7.470771670341492E-001;-4.038786372056240E-001;
6.693046523261631E+009;-7.620521187782288E-001;-3.730141257313689E-001;
6.694047023511756E+009;-7.728714346885681E-001;-3.435227144494373E-001;
6.695047523761881E+009;-7.845440506935120E-001;-3.148048998353808E-001;
6.696048024012006E+009;-7.987351417541504E-001;-2.868880930815796E-001;
6.697048524262131E+009;-8.095542192459106E-001;-2.570014421111435E-001;
6.698049024512256E+009;-8.186917901039124E-001;-2.226217484461869E-001;
6.699049524762382E+009;-8.235061764717102E-001;-1.933058254187772E-001;
6.700050025012507E+009;-8.294695615768433E-001;-1.630526707620568E-001;
6.701050525262631E+009;-8.352899551391602E-001;-1.298690485115935E-001;
6.702051025512756E+009;-8.366761207580566E-001;-1.007864674995583E-001;
6.703051525762881E+009;-8.408321142196655E-001;-6.464650780759444E-002;
6.704052026013006E+009;-8.411793112754822E-001;-3.188808063156430E-002;
6.705052526263131E+009;-8.425818085670471E-001;-1.702009384668572E-003;
6.706053026513257E+009;-8.419495820999146E-001;3.261953583016208E-002;
6.707053526763382E+009;-8.376297950744629E-001;6.577955450131445E-002;
6.708054027013507E+009;-8.353167772293091E-001;9.807299178449444E-002;
6.709054527263632E+009;-8.309088945388794E-001;1.286270192934557E-001;
6.710055027513757E+009;-8.253085613250732E-001;1.624887971873157E-001;
6.711055527763882E+009;-8.149203658103943E-001;1.910215115162656E-001;
6.712056028014007E+009;-8.052989244461060E-001;2.220476954655117E-001;
6.713056528264133E+009;-7.962653040885925E-001;2.570303896281004E-001;
6.714057028514257E+009;-7.820789813995361E-001;2.891393535041300E-001;
6.715057528764382E+009;-7.696105837821960E-001;3.182187854544427E-001;
6.716058029014507E+009;-7.564039826393127E-001;3.477795682395585E-001;
6.717058529264632E+009;-7.433813810348511E-001;3.768745722823533E-001;
6.718059029514757E+009;-7.255165576934815E-001;4.088040644470445E-001;
6.719059529764882E+009;-7.071253657341003E-001;4.338556767596234E-001;
6.720060030015008E+009;-6.896237730979919E-001;4.613282189132680E-001;
6.721060530265133E+009;-6.652486324310303E-001;4.897445522623988E-001;
6.722061030515258E+009;-6.442452073097229E-001;5.176436113607004E-001;
6.723061530765383E+009;-6.232008337974548E-001;5.401003485932852E-001;
6.724062031015508E+009;-6.008959412574768E-001;5.660746269468860E-001;
6.725062531265633E+009;-5.730544328689575E-001;5.904886751692380E-001;
6.726063031515758E+009;-5.505104064941406E-001;6.135505667843922E-001;
6.727063531765883E+009;-5.210241675376892E-001;6.350610940965504E-001;
6.728064032016008E+009;-4.929807484149933E-001;6.503684845050370E-001;
6.729064532266133E+009;-4.649944007396698E-001;6.723083120951634E-001;
6.730065032516258E+009;-4.375257492065430E-001;6.911553684761568E-001;
6.731065532766383E+009;-4.067399799823761E-001;7.069373068854644E-001;
6.732066033016508E+009;-3.747004568576813E-001;7.230494598999878E-001;
6.733066533266633E+009;-3.466774523258209E-001;7.354694310660931E-001;
6.734067033516758E+009;-3.124436736106873E-001;7.477240916991730E-001;
6.735067533766884E+009;-2.787445485591888E-001;7.592574905420915E-001;
6.736068034017009E+009;-2.447458505630493E-001;7.674410612613423E-001;
6.737068534267134E+009;-2.117948681116104E-001;7.761305020077407E-001;
6.738069034517259E+009;-1.774023473262787E-001;7.835738273893929E-001;
6.739069534767384E+009;-1.474713534116745E-001;7.913769490902840E-001;
6.740070035017509E+009;-1.106083616614342E-001;7.915705459605185E-001;
6.741070535267633E+009;-7.734486460685730E-002;7.959334368580937E-001;
6.742071035517759E+009;-4.372835531830788E-002;7.980078289778415E-001;
6.743071535767884E+009;-8.349976502358913E-003;7.967860085998351E-001;
6.744072036018009E+009;2.595988661050797E-002;7.951097468417221E-001;
6.745072536268134E+009;6.216359883546829E-002;7.930172397110128E-001;
6.746073036518259E+009;9.368602186441422E-002;7.884736396237944E-001;
6.747073536768384E+009;1.287049651145935E-001;7.821334056364572E-001;
6.748074037018509E+009;1.608139425516129E-001;7.735584793965752E-001;
6.749074537268635E+009;1.957260817289352E-001;7.607700373509414E-001;
6.750075037518760E+009;2.304747402667999E-001;7.522868071665364E-001;
6.751075537768885E+009;2.608552873134613E-001;7.406209084562236E-001;
6.752076038019010E+009;2.917678058147430E-001;7.268647577616545E-001;
6.753076538269135E+009;3.236307799816132E-001;7.134076231693596E-001;
6.754077038519260E+009;3.540151715278626E-001;6.968030585146755E-001;
6.755077538769384E+009;3.839687407016754E-001;6.790501866199887E-001;
6.756078039019509E+009;4.104773402214050E-001;6.608574017569544E-001;
6.757078539269635E+009;4.395020604133606E-001;6.409842904195198E-001;
6.758079039519760E+009;4.656124711036682E-001;6.208696179925169E-001;
6.759079539769885E+009;4.932556748390198E-001;5.983507277159821E-001;
6.760080040020010E+009;5.195950865745544E-001;5.764370752684747E-001;
6.761080540270135E+009;5.421788692474365E-001;5.531224552165877E-001;
6.762081040520260E+009;5.657004714012146E-001;5.273065144767746E-001;
6.763081540770385E+009;5.878714323043823E-001;5.011780644979507E-001;
6.764082041020511E+009;6.085731983184815E-001;4.746880029036893E-001;
6.765082541270636E+009;6.273823976516724E-001;4.480492628335354E-001;
6.766083041520761E+009;6.472534537315369E-001;4.196475169518027E-001;
6.767083541770886E+009;6.659957170486450E-001;3.911245142636846E-001;
6.768084042021010E+009;6.799997687339783E-001;3.631427780263378E-001;
6.769084542271135E+009;6.953405737876892E-001;3.307451863003778E-001;
6.770085042521260E+009;7.092941403388977E-001;3.041248747999710E-001;
6.771085542771386E+009;7.207407951354981E-001;2.701905315343866E-001;
6.772086043021511E+009;7.313646674156189E-001;2.402405418147925E-001;
6.773086543271636E+009;7.425025105476379E-001;2.089649974640714E-001;
6.774087043521761E+009;7.511376738548279E-001;1.756677324649890E-001;
6.775087543771886E+009;7.570422887802124E-001;1.454058960989707E-001;
6.776088044022011E+009;7.616582512855530E-001;1.106205164260147E-001;
6.777088544272136E+009;7.681176662445068E-001;7.930961975411205E-002;
6.778089044522261E+009;7.706034183502197E-001;4.782693215410576E-002;
6.779089544772387E+009;7.748096585273743E-001;1.385586951042663E-002;
6.780090045022512E+009;7.721909284591675E-001;-1.840192024011171E-002;
6.781090545272636E+009;7.729936242103577E-001;-5.088635628670558E-002;
6.782091045522761E+009;7.709848284721375E-001;-8.288885776032136E-002;
6.783091545772886E+009;7.679730653762817E-001;-1.141775388600468E-001;
6.784092046023011E+009;7.632865309715271E-001;-1.469589363154185E-001;
6.785092546273136E+009;7.588399052619934E-001;-1.771737888630126E-001;
6.786093046523262E+009;7.515209317207336E-001;-2.100418906744964E-001;
6.787093546773387E+009;7.433626055717468E-001;-2.413240995302787E-001;
6.788094047023512E+009;7.337622046470642E-001;-2.724473863775495E-001;
6.789094547273637E+009;7.257952690124512E-001;-2.996593278496636E-001;
6.790095047523762E+009;7.121919393539429E-001;-3.299905109953067E-001;
6.791095547773887E+009;7.024317979812622E-001;-3.591638495451294E-001;
6.792096048024012E+009;6.888709664344788E-001;-3.872007128067634E-001;
6.793096548274138E+009;6.742755174636841E-001;-4.163610797851404E-001;
6.794097048524262E+009;6.597851514816284E-001;-4.400399220008551E-001;
6.795097548774387E+009;6.445270180702210E-001;-4.687260173485352E-001;
6.796098049024512E+009;6.260387897491455E-001;-4.945861222381479E-001;
6.797098549274637E+009;6.077010035514832E-001;-5.193562706535305E-001;
6.798099049524762E+009;5.878444910049439E-001;-5.443806834618216E-001;
6.799099549774887E+009;5.703080892562866E-001;-5.666759482512215E-001;
6.800100050025013E+009;5.465703010559082E-001;-5.870632961675456E-001;
6.801100550275138E+009;5.284222960472107E-001;-6.112886921913827E-001;
6.802101050525263E+009;5.055983662605286E-001;-6.314999936114357E-001;
6.803101550775388E+009;4.832888841629028E-001;-6.515324880987631E-001;
6.804102051025513E+009;4.604683220386505E-001;-6.707467677629307E-001;
6.805102551275638E+009;4.346278011798859E-001;-6.895375961283888E-001;
6.806103051525763E+009;4.101925492286682E-001;-7.063994427368036E-001;
6.807103551775888E+009;3.864966332912445E-001;-7.227870508893965E-001;
6.808104052026013E+009;3.610493838787079E-001;-7.389889224630063E-001;
6.809104552276138E+009;3.331067562103272E-001;-7.517192709841625E-001;
6.810105052526263E+009;3.078274726867676E-001;-7.666701832705332E-001;
6.811105552776388E+009;2.842641472816467E-001;-7.768415163120943E-001;
6.812106053026513E+009;2.564719319343567E-001;-7.903104563270844E-001;
6.813106553276638E+009;2.300464361906052E-001;-8.012078513591840E-001;
6.814107053526763E+009;2.007364481687546E-001;-8.106641918025913E-001;
6.815107553776889E+009;1.744762659072876E-001;-8.183594655539477E-001;
6.816108054027014E+009;1.465569734573364E-001;-8.225671166097986E-001;
6.817108554277139E+009;1.192495822906494E-001;-8.286935823667326E-001;
6.818109054527264E+009;8.795739710330963E-002;-8.361278304233976E-001;
6.819109554777389E+009;6.025861948728561E-002;-8.401032910769111E-001;
6.820110055027514E+009;3.074127808213234E-002;-8.423704661587608E-001;
6.821110555277638E+009;2.593968762084842E-003;-8.451680661990337E-001;
6.822111055527764E+009;-2.571354247629643E-002;-8.488335933185697E-001;
6.823111555777889E+009;-5.104866251349449E-002;-8.484017135798927E-001;
6.824112056028014E+009;-8.116471022367477E-002;-8.430563405023714E-001;
6.825112556278139E+009;-1.091855391860008E-001;-8.463898720218568E-001;
6.826113056528264E+009;-1.390921473503113E-001;-8.416921619079997E-001;
6.827113556778389E+009;-1.675141304731369E-001;-8.397509251743041E-001;
6.828114057028514E+009;-1.929786652326584E-001;-8.329330745774560E-001;
6.829114557278639E+009;-2.219136357307434E-001;-8.296130489749513E-001;
6.830115057528765E+009;-2.503814101219177E-001;-8.220806010909828E-001;
6.831115557778890E+009;-2.799264192581177E-001;-8.141530394287098E-001;
6.832116058029015E+009;-3.028242588043213E-001;-8.056461597236274E-001;
6.833116558279140E+009;-3.287664055824280E-001;-7.976623320569382E-001;
6.834117058529265E+009;-3.570247590541840E-001;-7.876073415522801E-001;
6.835117558779389E+009;-3.821274340152741E-001;-7.767745409096091E-001;
6.836118059029514E+009;-4.089844822883606E-001;-7.627126767185264E-001;
6.837118559279640E+009;-4.352825880050659E-001;-7.491436950611925E-001;
6.838119059529765E+009;-4.581778943538666E-001;-7.347685265492792E-001;
6.839119559779890E+009;-4.817794561386108E-001;-7.213657819690547E-001;
6.840120060030015E+009;-5.053929090499878E-001;-7.076170664155418E-001;
6.841120560280140E+009;-5.278665423393250E-001;-6.927243914469611E-001;
6.842121060530265E+009;-5.527224540710449E-001;-6.744082576193019E-001;
6.843121560780390E+009;-5.721880197525024E-001;-6.559090509951810E-001;
6.844122061030516E+009;-5.919823646545410E-001;-6.351668570838294E-001;
6.845122561280641E+009;-6.138741374015808E-001;-6.133473998674771E-001;
6.846123061530766E+009;-6.365967392921448E-001;-5.938220285128992E-001;
6.847123561780891E+009;-6.574790477752686E-001;-5.728605290458737E-001;
6.848124062031015E+009;-6.729072928428650E-001;-5.501591921249156E-001;
6.849124562281140E+009;-6.941220164299011E-001;-5.273573635675847E-001;
6.850125062531265E+009;-7.089270353317261E-001;-5.050539977768513E-001;
6.851125562781391E+009;-7.253826856613159E-001;-4.822611673968260E-001;
6.852126063031516E+009;-7.405956387519836E-001;-4.546156857863374E-001;
6.853126563281641E+009;-7.559736371040344E-001;-4.298830977988633E-001;
6.854127063531766E+009;-7.681634426116943E-001;-4.036679618784582E-001;
6.855127563781891E+009;-7.828282713890076E-001;-3.771213625226438E-001;
6.856128064032016E+009;-7.947320342063904E-001;-3.495159094659815E-001;
6.857128564282141E+009;-8.027192950248718E-001;-3.237961030258416E-001;
6.858129064532267E+009;-8.139608502388001E-001;-2.940250093898008E-001;
6.859129564782392E+009;-8.229772448539734E-001;-2.674966920035666E-001;
6.860130065032517E+009;-8.289912939071655E-001;-2.348426929556496E-001;
6.861130565282641E+009;-8.366534709930420E-001;-2.059112359723974E-001;
6.862131065532766E+009;-8.409872055053711E-001;-1.784245061347992E-001;
6.863131565782891E+009;-8.474992513656616E-001;-1.474524343480451E-001;
6.864132066033016E+009;-8.479832410812378E-001;-1.169053929099815E-001;
6.865132566283141E+009;-8.539792299270630E-001;-8.237542805850083E-002;
6.866133066533267E+009;-8.537593483924866E-001;-5.522778521853836E-002;
6.867133566783392E+009;-8.530488014221191E-001;-2.178440935277071E-002;
6.868134067033517E+009;-8.511456251144409E-001;8.019980997455725E-003;
6.869134567283642E+009;-8.493539690971375E-001;4.307084266575727E-002;
6.870135067533767E+009;-8.461927771568298E-001;7.408318961745700E-002;
6.871135567783892E+009;-8.409640192985535E-001;1.061560518997610E-001;
6.872136068034017E+009;-8.332765102386475E-001;1.350255190279075E-001;
6.873136568284143E+009;-8.268928527832031E-001;1.672797336253268E-001;
6.874137068534267E+009;-8.172338604927063E-001;1.983731182556311E-001;
6.875137568784392E+009;-8.067880868911743E-001;2.288379718677623E-001;
6.876138069034517E+009;-7.952436208724976E-001;2.598380526283752E-001;
6.877138569284642E+009;-7.807468175888062E-001;2.897969313734702E-001;
6.878139069534767E+009;-7.681059241294861E-001;3.206263547460755E-001;
6.879139569784892E+009;-7.521212697029114E-001;3.490845064816358E-001;
