freq[Hz];dbTrc1_S11;angTrc1_S11;
6.600000000000000E+009;-2.209716130645001E+000;4.126401803536788E+001;
6.601000500250125E+009;-2.200566068606739E+000;3.873943253946592E+001;
6.602001000500250E+009;-2.158733788851730E+000;3.610059752570290E+001;
6.603001500750375E+009;-2.162670639034161E+000;3.371032730521494E+001;
6.604002001000501E+009;-2.155954533358519E+000;3.101375213471841E+001;
6.605002501250626E+009;-2.153240403412687E+000;2.881083087408803E+001;
6.606003001500751E+009;-2.130230426965078E+000;2.622437443112108E+001;
6.607003501750876E+009;-2.128711523072900E+000;2.368616871163678E+001;
6.608004002001000E+009;-2.118482841035362E+000;2.137565120553325E+001;
6.609004502251125E+009;-2.083926987554038E+000;1.884188372859595E+001;
6.610005002501250E+009;-2.098101598532547E+000;1.635191115794290E+001;
6.611005502751376E+009;-2.065995569625368E+000;1.411683294912244E+001;
6.612006003001501E+009;-2.042183582140156E+000;1.173549445596870E+001;
6.613006503251626E+009;-2.006617678002427E+000;9.608395131113054E+000;
6.614007003501751E+009;-2.011558127039510E+000;7.293753401922873E+000;
6.615007503751876E+009;-1.993034352710233E+000;4.949292742776993E+000;
6.616008004002001E+009;-1.913847185587914E+000;2.580439928453912E+000;
6.617008504252126E+009;-1.954252134384154E+000;4.420520876191227E-001;
6.618009004502251E+009;-1.949755937862302E+000;-2.011246671264986E+000;
6.619009504752377E+009;-1.907761855634116E+000;-4.083611190967870E+000;
6.620010005002502E+009;-1.871543696597064E+000;-6.504174618048284E+000;
6.621010505252626E+009;-1.866226525453398E+000;-8.585988121953022E+000;
6.622011005502751E+009;-1.871871238905803E+000;-1.106802491691323E+001;
6.623011505752876E+009;-1.843117627417645E+000;-1.307073895385322E+001;
6.624012006003001E+009;-1.834658074695439E+000;-1.534853365032193E+001;
6.625012506253126E+009;-1.821576092622451E+000;-1.761266512420766E+001;
6.626013006503252E+009;-1.806385667301742E+000;-1.954868930852736E+001;
6.627013506753377E+009;-1.764203821880362E+000;-2.159581372117465E+001;
6.628014007003502E+009;-1.739534007466974E+000;-2.392571331203002E+001;
6.629014507253627E+009;-1.725304255078745E+000;-2.592438171531025E+001;
6.630015007503752E+009;-1.727446495468745E+000;-2.782966482247146E+001;
6.631015507753877E+009;-1.713771848387447E+000;-3.009691525685463E+001;
6.632016008004002E+009;-1.694299185939215E+000;-3.221180714813561E+001;
6.633016508254128E+009;-1.676605986239388E+000;-3.423536524103454E+001;
6.634017008504252E+009;-1.676646847294654E+000;-3.629114839880420E+001;
6.635017508754377E+009;-1.679893341981948E+000;-3.836580546806493E+001;
6.636018009004502E+009;-1.659101927885740E+000;-4.035506407583879E+001;
6.637018509254627E+009;-1.646360664257388E+000;-4.231695987439899E+001;
6.638019009504752E+009;-1.621718120910052E+000;-4.428050394202720E+001;
6.639019509754877E+009;-1.608173747005267E+000;-4.632398359581963E+001;
6.640020010005003E+009;-1.614299233582526E+000;-4.833110394173720E+001;
6.641020510255128E+009;-1.573315291221153E+000;-5.039191617705863E+001;
6.642021010505253E+009;-1.568104370069965E+000;-5.229610506322589E+001;
6.643021510755378E+009;-1.541871945731951E+000;-5.432472644813343E+001;
6.644022011005503E+009;-1.557317889742709E+000;-5.639196080740984E+001;
6.645022511255628E+009;-1.541628671401538E+000;-5.835013386986879E+001;
6.646023011505753E+009;-1.558863079651911E+000;-6.022009361956560E+001;
6.647023511755878E+009;-1.492912800312494E+000;-6.211788631660815E+001;
6.648024012006003E+009;-1.519671773503237E+000;-6.425338056314728E+001;
6.649024512256128E+009;-1.508996407641373E+000;-6.612312847912648E+001;
6.650025012506253E+009;-1.512779804995798E+000;-6.802873167461632E+001;
6.651025512756378E+009;-1.485693107911253E+000;-7.014187336208168E+001;
6.652026013006503E+009;-1.466973658604698E+000;-7.202042550001009E+001;
6.653026513256628E+009;-1.478474143266948E+000;-7.395689672234663E+001;
6.654027013506753E+009;-1.470716590326089E+000;-7.581473430026014E+001;
6.655027513756879E+009;-1.454593083057469E+000;-7.788064734859354E+001;
6.656028014007004E+009;-1.466878154519215E+000;-7.973169573363271E+001;
6.657028514257129E+009;-1.464621563191038E+000;-8.160280825049622E+001;
6.658029014507254E+009;-1.443148414158771E+000;-8.358501493253837E+001;
6.659029514757379E+009;-1.447914170024433E+000;-8.547252750572984E+001;
6.660030015007504E+009;-1.435821538427568E+000;-8.732627178023522E+001;
6.661030515257628E+009;-1.455888231485588E+000;-8.936579059239462E+001;
6.662031015507754E+009;-1.432139765230799E+000;-9.140391852715587E+001;
6.663031515757879E+009;-1.410643896644234E+000;-9.331625969822747E+001;
6.664032016008004E+009;-1.425718046262044E+000;-9.524447033769275E+001;
6.665032516258129E+009;-1.421520085799451E+000;-9.727145684017168E+001;
6.666033016508254E+009;-1.412739445864823E+000;-9.932370668477120E+001;
6.667033516758379E+009;-1.400906504297379E+000;-1.012525223571680E+002;
6.668034017008504E+009;-1.413039195913389E+000;-1.031877897310370E+002;
6.669034517258629E+009;-1.385504504347752E+000;-1.049527511826536E+002;
6.670035017508755E+009;-1.396428131740302E+000;-1.070498385784508E+002;
6.671035517758880E+009;-1.423123287688612E+000;-1.090224407524337E+002;
6.672036018009005E+009;-1.410181954503392E+000;-1.109938380647517E+002;
6.673036518259130E+009;-1.392608777968721E+000;-1.130225873174852E+002;
6.674037018509255E+009;-1.379899492340757E+000;-1.148212915642457E+002;
6.675037518759379E+009;-1.414112277462094E+000;-1.169116040669990E+002;
6.676038019009504E+009;-1.383824747097057E+000;-1.189338831652055E+002;
6.677038519259630E+009;-1.411305319413172E+000;-1.208556433095010E+002;
6.678039019509755E+009;-1.374065237367316E+000;-1.228347794388302E+002;
6.679039519759880E+009;-1.404352316092922E+000;-1.248573616836374E+002;
6.680040020010005E+009;-1.411615411450175E+000;-1.269137331733800E+002;
6.681040520260130E+009;-1.411360728216632E+000;-1.289630308608873E+002;
6.682041020510255E+009;-1.413172265744580E+000;-1.309084698805438E+002;
6.683041520760380E+009;-1.419215245472311E+000;-1.329676197276074E+002;
6.684042021010506E+009;-1.425080309445196E+000;-1.350190846796489E+002;
6.685042521260631E+009;-1.408030075939730E+000;-1.372382628597970E+002;
6.686043021510756E+009;-1.411881468019006E+000;-1.391871993774852E+002;
6.687043521760881E+009;-1.406023637212122E+000;-1.412278434459373E+002;
6.688044022011005E+009;-1.411000887518151E+000;-1.433467081530129E+002;
6.689044522261130E+009;-1.403454568714108E+000;-1.453536385703016E+002;
6.690045022511255E+009;-1.407393274212915E+000;-1.477067982771330E+002;
6.691045522761381E+009;-1.415259724475928E+000;-1.496933218115603E+002;
6.692046023011506E+009;-1.405203635370609E+000;-1.517151123575505E+002;
6.693046523261631E+009;-1.388878037930332E+000;-1.541089379636397E+002;
6.694047023511756E+009;-1.456077948103613E+000;-1.559547619534942E+002;
6.695047523761881E+009;-1.472303347711500E+000;-1.581383000537883E+002;
6.696048024012006E+009;-1.443473436561047E+000;-1.604292992437453E+002;
6.697048524262131E+009;-1.451780280466407E+000;-1.626533190857230E+002;
6.698049024512256E+009;-1.430205283966057E+000;-1.644668317140155E+002;
6.699049524762382E+009;-1.472271458999503E+000;-1.667954915628595E+002;
6.700050025012507E+009;-1.453638282953105E+000;-1.687820475215539E+002;
6.701050525262631E+009;-1.475044481537955E+000;-1.709876363177707E+002;
6.702051025512756E+009;-1.480851425784286E+000;-1.732779649638806E+002;
6.703051525762881E+009;-1.487049668286978E+000;-1.756143215929235E+002;
6.704052026013006E+009;-1.488698444452429E+000;-1.776863759236560E+002;
6.705052526263131E+009;-1.493482478346458E+000;1.799891342416000E+002;
6.706053026513257E+009;-1.513249517686554E+000;1.781301150229839E+002;
6.707053526763382E+009;-1.523011427116651E+000;1.757532389928356E+002;
6.708054027013507E+009;-1.507137633851186E+000;1.734113626704817E+002;
6.709054527263632E+009;-1.546996187925714E+000;1.710808531366611E+002;
6.710055027513757E+009;-1.528664540162220E+000;1.688115589040100E+002;
6.711055527763882E+009;-1.529790221570878E+000;1.667795094619061E+002;
6.712056028014007E+009;-1.565910223440913E+000;1.643388535830481E+002;
6.713056528264133E+009;-1.551563027448448E+000;1.619784719604466E+002;
6.714057028514257E+009;-1.554789353534667E+000;1.598345162837346E+002;
6.715057528764382E+009;-1.554108677864164E+000;1.574946399689588E+002;
6.716058029014507E+009;-1.586363254018604E+000;1.554555587869310E+002;
6.717058529264632E+009;-1.621443284480706E+000;1.528406196891910E+002;
6.718059029514757E+009;-1.603996657725906E+000;1.507369640103650E+002;
6.719059529764882E+009;-1.603854118272746E+000;1.481471762080525E+002;
6.720060030015008E+009;-1.622730510635087E+000;1.459180213800706E+002;
6.721060530265133E+009;-1.643995333944245E+000;1.434783487038428E+002;
6.722061030515258E+009;-1.648635761105321E+000;1.414745687894382E+002;
6.723061530765383E+009;-1.672920107538313E+000;1.389368422000707E+002;
6.724062031015508E+009;-1.675256344059343E+000;1.366883275025124E+002;
6.725062531265633E+009;-1.679980639158444E+000;1.341229591076006E+002;
6.726063031515758E+009;-1.724979899190130E+000;1.317635814751833E+002;
6.727063531765883E+009;-1.710114472802436E+000;1.296327505615921E+002;
6.728064032016008E+009;-1.748408905141694E+000;1.270749914956278E+002;
6.729064532266133E+009;-1.735594871456049E+000;1.245608815168202E+002;
6.730065032516258E+009;-1.780997703058620E+000;1.224524675793638E+002;
6.731065532766383E+009;-1.789503771470547E+000;1.199032020763380E+002;
6.732066033016508E+009;-1.794030223613740E+000;1.174892653577458E+002;
6.733066533266633E+009;-1.834112721110347E+000;1.152926103795036E+002;
6.734067033516758E+009;-1.852647285343154E+000;1.127682217551108E+002;
6.735067533766884E+009;-1.831128678630853E+000;1.102187588949030E+002;
6.736068034017009E+009;-1.861615064693586E+000;1.077892383733098E+002;
6.737068534267134E+009;-1.874852317779444E+000;1.054006018868070E+002;
6.738069034517259E+009;-1.883081850845371E+000;1.030044223110170E+002;
6.739069534767384E+009;-1.918227116844090E+000;1.005575596092275E+002;
6.740070035017509E+009;-1.919581378017196E+000;9.808079993416573E+001;
6.741070535267633E+009;-1.937497211051137E+000;9.555305660290713E+001;
6.742071035517759E+009;-1.964042181520724E+000;9.312914675578689E+001;
6.743071535767884E+009;-1.994401044230702E+000;9.052729988284069E+001;
6.744072036018009E+009;-1.995650781788014E+000;8.814380438381788E+001;
6.745072536268134E+009;-2.012545394722053E+000;8.566118705844428E+001;
6.746073036518259E+009;-2.013350416442593E+000;8.312102237174489E+001;
6.747073536768384E+009;-2.044626437183307E+000;8.070721465701314E+001;
6.748074037018509E+009;-2.036585255161365E+000;7.811983147441468E+001;
6.749074537268635E+009;-2.080810341664854E+000;7.562143450633489E+001;
6.750075037518760E+009;-2.074408253631868E+000;7.315435345008632E+001;
6.751075537768885E+009;-2.097349127317214E+000;7.067909860749964E+001;
6.752076038019010E+009;-2.102692636162793E+000;6.814860482958780E+001;
6.753076538269135E+009;-2.121169433832487E+000;6.563025200942613E+001;
6.754077038519260E+009;-2.150271018935917E+000;6.301461541190857E+001;
6.755077538769384E+009;-2.144251416654017E+000;6.051293673727787E+001;
6.756078039019509E+009;-2.167021011096928E+000;5.802211020963202E+001;
6.757078539269635E+009;-2.170750874440060E+000;5.551975724315550E+001;
6.758079039519760E+009;-2.209903048968659E+000;5.312718964532013E+001;
6.759079539769885E+009;-2.193692631316853E+000;5.043744592708979E+001;
6.760080040020010E+009;-2.228762833308466E+000;4.789962529822536E+001;
6.761080540270135E+009;-2.232358246414751E+000;4.544637755746512E+001;
6.762081040520260E+009;-2.234654764867366E+000;4.295003553426716E+001;
6.763081540770385E+009;-2.237377241807903E+000;4.040463043170053E+001;
6.764082041020511E+009;-2.237920187520041E+000;3.801194015636297E+001;
6.765082541270636E+009;-2.262149260948925E+000;3.547485540326041E+001;
6.766083041520761E+009;-2.258098473089381E+000;3.286341018525249E+001;
6.767083541770886E+009;-2.265601280492566E+000;3.052409615134981E+001;
6.768084042021010E+009;-2.269641216487324E+000;2.807254555046024E+001;
6.769084542271135E+009;-2.272422698183505E+000;2.553102786241499E+001;
6.770085042521260E+009;-2.277333524537228E+000;2.303218175726785E+001;
6.771085542771386E+009;-2.270006631725749E+000;2.062516129580925E+001;
6.772086043021511E+009;-2.261455327960767E+000;1.817808981958631E+001;
6.773086543271636E+009;-2.274618354617016E+000;1.567503702232510E+001;
6.774087043521761E+009;-2.268694311892777E+000;1.315802643503207E+001;
6.775087543771886E+009;-2.266108300587216E+000;1.072133517317520E+001;
6.776088044022011E+009;-2.252674129626946E+000;8.375468277805817E+000;
6.777088544272136E+009;-2.248910866851251E+000;5.818977571488782E+000;
6.778089044522261E+009;-2.240179009355100E+000;3.395489370832538E+000;
6.779089544772387E+009;-2.244642018211723E+000;1.053915084883614E+000;
6.780090045022512E+009;-2.253213213929614E+000;-1.407211965638240E+000;
6.781090545272636E+009;-2.215792191601710E+000;-3.685200592819417E+000;
6.782091045522761E+009;-2.205707216456069E+000;-6.303279631246765E+000;
6.783091545772886E+009;-2.169158287507219E+000;-8.494611251629834E+000;
6.784092046023011E+009;-2.179599745791852E+000;-1.077550727824980E+001;
6.785092546273136E+009;-2.163633292906888E+000;-1.335432699302317E+001;
6.786093046523262E+009;-2.160470114677172E+000;-1.559128673605830E+001;
6.787093546773387E+009;-2.149927893021615E+000;-1.792407699899140E+001;
6.788094047023512E+009;-2.123634653839222E+000;-2.028374705970078E+001;
6.789094547273637E+009;-2.104935310691515E+000;-2.258363549129848E+001;
6.790095047523762E+009;-2.069225157024857E+000;-2.494271723658035E+001;
6.791095547773887E+009;-2.060563321801040E+000;-2.717605119964397E+001;
6.792096048024012E+009;-2.053225396339589E+000;-2.942650382569746E+001;
6.793096548274138E+009;-2.035056963242909E+000;-3.164125224680629E+001;
6.794097048524262E+009;-2.007305840919945E+000;-3.399205581964078E+001;
6.795097548774387E+009;-1.978686785381392E+000;-3.601386024279532E+001;
6.796098049024512E+009;-1.958367075132371E+000;-3.819483659277709E+001;
6.797098549274637E+009;-1.956936840856291E+000;-4.041009466505694E+001;
6.798099049524762E+009;-1.929209942853122E+000;-4.268223629264751E+001;
6.799099549774887E+009;-1.891626204668806E+000;-4.507979833145693E+001;
6.800100050025013E+009;-1.913841146738009E+000;-4.717322101179905E+001;
6.801100550275138E+009;-1.860474996236851E+000;-4.922669075388328E+001;
6.802101050525263E+009;-1.838812128578965E+000;-5.135097125634727E+001;
6.803101550775388E+009;-1.828904190636238E+000;-5.350197301897622E+001;
6.804102051025513E+009;-1.786515431083157E+000;-5.572744549374925E+001;
6.805102551275638E+009;-1.764975017815044E+000;-5.768258470837790E+001;
6.806103051525763E+009;-1.743610320003846E+000;-5.974453036122485E+001;
6.807103551775888E+009;-1.721760233435322E+000;-6.184601910023957E+001;
6.808104052026013E+009;-1.703103533394405E+000;-6.393220171244035E+001;
6.809104552276138E+009;-1.695709915680072E+000;-6.594248526166899E+001;
6.810105052526263E+009;-1.653174697403303E+000;-6.808291435405931E+001;
6.811105552776388E+009;-1.662239826690220E+000;-6.994635680395490E+001;
6.812106053026513E+009;-1.641446832165628E+000;-7.205012065574709E+001;
6.813106553276638E+009;-1.602753843397348E+000;-7.412000738037165E+001;
6.814107053526763E+009;-1.586163720473944E+000;-7.625978958705208E+001;
6.815107553776889E+009;-1.561798026838528E+000;-7.807461530379918E+001;
6.816108054027014E+009;-1.558938729566811E+000;-8.017978175355697E+001;
6.817108554277139E+009;-1.524756606797036E+000;-8.185446953467822E+001;
6.818109054527264E+009;-1.524350418676980E+000;-8.397219565926663E+001;
6.819109554777389E+009;-1.490674403228639E+000;-8.585162131654852E+001;
6.820110055027514E+009;-1.468453900174526E+000;-8.775682708960363E+001;
6.821110555277638E+009;-1.471736189387622E+000;-8.977890714608682E+001;
6.822111055527764E+009;-1.437298182833845E+000;-9.172140118254038E+001;
6.823111555777889E+009;-1.427327667219341E+000;-9.370659732962713E+001;
6.824112056028014E+009;-1.400500757228362E+000;-9.537982202279511E+001;
6.825112556278139E+009;-1.411163982186678E+000;-9.743356293772769E+001;
6.826113056528264E+009;-1.367407392095060E+000;-9.936718937194576E+001;
6.827113556778389E+009;-1.372130946196482E+000;-1.012768824310988E+002;
6.828114057028514E+009;-1.338044929019786E+000;-1.030976201345599E+002;
6.829114557278639E+009;-1.326725550275028E+000;-1.049870715539691E+002;
6.830115057528765E+009;-1.309213082111763E+000;-1.068334737947169E+002;
6.831115557778890E+009;-1.328248775591209E+000;-1.087979172064520E+002;
6.832116058029015E+009;-1.283958273249325E+000;-1.107045179696096E+002;
6.833116558279140E+009;-1.253274757505278E+000;-1.124755414648162E+002;
6.834117058529265E+009;-1.265233707387277E+000;-1.144139343924033E+002;
6.835117558779389E+009;-1.262643343752058E+000;-1.161913967148679E+002;
6.836118059029514E+009;-1.264513750562388E+000;-1.182874160818317E+002;
6.837118559279640E+009;-1.260409223249039E+000;-1.199682729292671E+002;
6.838119059529765E+009;-1.228423206446912E+000;-1.217142329992343E+002;
6.839119559779890E+009;-1.231719160642288E+000;-1.236730674471035E+002;
6.840120060030015E+009;-1.207743271516954E+000;-1.255783237373096E+002;
6.841120560280140E+009;-1.207571921211699E+000;-1.275730817077635E+002;
6.842121060530265E+009;-1.206225974464632E+000;-1.293334706270773E+002;
6.843121560780390E+009;-1.198749889742504E+000;-1.311329041963937E+002;
6.844122061030516E+009;-1.208925816869085E+000;-1.333155727158558E+002;
6.845122561280641E+009;-1.207425039040362E+000;-1.349717583535736E+002;
6.846123061530766E+009;-1.182014920980917E+000;-1.369840627399104E+002;
6.847123561780891E+009;-1.217238019941318E+000;-1.388214680641095E+002;
6.848124062031015E+009;-1.212093126590563E+000;-1.407292374079974E+002;
6.849124562281140E+009;-1.210000985689319E+000;-1.426583831696461E+002;
6.850125062531265E+009;-1.190426896225615E+000;-1.445355557745163E+002;
6.851125562781391E+009;-1.190564638641876E+000;-1.464741256627114E+002;
6.852126063031516E+009;-1.222350376206029E+000;-1.482633216416804E+002;
6.853126563281641E+009;-1.199385005364023E+000;-1.502978439327418E+002;
6.854127063531766E+009;-1.230942755502092E+000;-1.523799421499311E+002;
6.855127563781891E+009;-1.230069553429141E+000;-1.542353629237432E+002;
6.856128064032016E+009;-1.254632922033217E+000;-1.561580569671453E+002;
6.857128564282141E+009;-1.256778646905059E+000;-1.582258760819250E+002;
6.858129064532267E+009;-1.253507101777976E+000;-1.601644460864780E+002;
6.859129564782392E+009;-1.276109700201889E+000;-1.621384019331540E+002;
6.860130065032517E+009;-1.275844076911847E+000;-1.640667434471174E+002;
6.861130565282641E+009;-1.292130777274306E+000;-1.661769844759599E+002;
6.862131065532766E+009;-1.305432287983794E+000;-1.681937241557077E+002;
6.863131565782891E+009;-1.316640490424444E+000;-1.702292270833559E+002;
6.864132066033016E+009;-1.327874842970489E+000;-1.722771031515491E+002;
6.865132566283141E+009;-1.360157266670371E+000;-1.744047318207149E+002;
6.866133066533267E+009;-1.341356280792184E+000;-1.763955371684754E+002;
6.867133566783392E+009;-1.373838711377936E+000;-1.784178888418355E+002;
6.868134067033517E+009;-1.361484532968110E+000;1.793970162465514E+002;
6.869134567283642E+009;-1.404007739384082E+000;1.772824612653499E+002;
6.870135067533767E+009;-1.423711695774799E+000;1.752053869154119E+002;
6.871135567783892E+009;-1.433373782108210E+000;1.729666558382981E+002;
6.872136068034017E+009;-1.473699414230466E+000;1.707317171444703E+002;
6.873136568284143E+009;-1.492866046925461E+000;1.684862821392282E+002;
6.874137068534267E+009;-1.518934343877705E+000;1.663858673291396E+002;
6.875137568784392E+009;-1.528555568643234E+000;1.640924427303083E+002;
6.876138069034517E+009;-1.549618999069191E+000;1.618462551786119E+002;
6.877138569284642E+009;-1.587120408888405E+000;1.596466562730147E+002;
