freq[Hz];re:Trc1_S11;im:Trc1_S11;
5.000000000000000E+009;8.063779473304749E-001;1.099275597509193E-001;
5.004002001000501E+009;8.265154957771301E-001;-2.082941610355377E-002;
5.008004002001000E+009;8.195068836212158E-001;-1.329836478166297E-001;
5.012006003001501E+009;7.978619337081909E-001;-2.555643865526512E-001;
5.016008004002001E+009;7.599811553955078E-001;-3.741092859995827E-001;
5.020010005002502E+009;7.054292559623718E-001;-4.786180019541885E-001;
5.024012006003001E+009;6.420072317123413E-001;-5.763889607068085E-001;
5.028014007003502E+009;5.558311343193054E-001;-6.668775197907951E-001;
5.032016008004002E+009;4.628894925117493E-001;-7.444631887214426E-001;
5.036018009004502E+009;3.520748317241669E-001;-8.068008361059778E-001;
5.040020010005003E+009;2.368860393762589E-001;-8.514198180262566E-001;
5.044022011005503E+009;1.162825450301170E-001;-8.760548449782495E-001;
5.048024012006003E+009;-7.525887805968523E-003;-8.851305125298676E-001;
5.052026013006503E+009;-1.338335275650024E-001;-8.736508013356976E-001;
5.056028014007004E+009;-2.585779726505280E-001;-8.412840596369894E-001;
5.060030015007504E+009;-3.793887495994568E-001;-7.898865555673732E-001;
5.064032016008004E+009;-4.894410967826843E-001;-7.119297457054764E-001;
5.068034017008504E+009;-5.844495892524719E-001;-6.261642360633403E-001;
5.072036018009005E+009;-6.680276393890381E-001;-5.248653446468777E-001;
5.076038019009504E+009;-7.319822907447815E-001;-4.072098136956480E-001;
5.080040020010005E+009;-7.784311771392822E-001;-2.762088091377608E-001;
5.084042021010506E+009;-8.083258271217346E-001;-1.474609460092920E-001;
5.088044022011005E+009;-8.102733492851257E-001;-1.461810919360297E-002;
5.092046023011506E+009;-7.918245196342468E-001;1.217482503212595E-001;
5.096048024012006E+009;-7.518983483314514E-001;2.508868127133083E-001;
5.100050025012507E+009;-6.942957639694214E-001;3.704123500409728E-001;
5.104052026013006E+009;-6.134725809097290E-001;4.878553628659433E-001;
5.108054027013507E+009;-5.263302922248840E-001;5.798500519136827E-001;
5.112056028014007E+009;-4.186089038848877E-001;6.652255749520345E-001;
5.116058029014507E+009;-2.979626953601837E-001;7.266331494703923E-001;
5.120060030015008E+009;-1.717344522476196E-001;7.678123129790385E-001;
5.124062031015508E+009;-4.164178669452667E-002;7.947811699429951E-001;
5.128064032016008E+009;9.012274444103241E-002;7.938653787641731E-001;
5.132066033016508E+009;2.193866372108460E-001;7.774644802635005E-001;
5.136068034017009E+009;3.478341102600098E-001;7.373693509387734E-001;
5.140070035017509E+009;4.615244269371033E-001;6.760094593586981E-001;
5.144072036018009E+009;5.680911540985107E-001;6.009608136364661E-001;
5.148074037018509E+009;6.599986553192139E-001;5.093873550990222E-001;
5.152076038019010E+009;7.320055961608887E-001;4.038774099637258E-001;
5.156078039019509E+009;7.902672886848450E-001;2.896298783455432E-001;
5.160080040020010E+009;8.255031108856201E-001;1.674507552380370E-001;
5.164082041020511E+009;8.473917245864868E-001;4.373857273739717E-002;
5.168084042021010E+009;8.453239798545837E-001;-8.088681150813909E-002;
5.172086043021511E+009;8.224001526832581E-001;-2.082634986159085E-001;
5.176088044022011E+009;7.842246890068054E-001;-3.223525180100902E-001;
5.180090045022512E+009;7.304953336715698E-001;-4.308137152585511E-001;
5.184092046023011E+009;6.608495712280273E-001;-5.289381030031187E-001;
5.188094047023512E+009;5.763620734214783E-001;-6.208234387566467E-001;
5.192096048024012E+009;4.812340438365936E-001;-6.957783295882827E-001;
5.196098049024512E+009;3.743170201778412E-001;-7.523005796707043E-001;
5.200100050025013E+009;2.677575349807739E-001;-8.002478198588302E-001;
5.204102051025513E+009;1.434535682201386E-001;-8.265929660226510E-001;
5.208104052026013E+009;2.542913891375065E-002;-8.383086608139229E-001;
5.212106053026513E+009;-9.753944724798203E-002;-8.379199678420837E-001;
5.216108054027014E+009;-2.145955860614777E-001;-8.132577788055345E-001;
5.220110055027514E+009;-3.292540907859802E-001;-7.701090178791574E-001;
5.224112056028014E+009;-4.431425929069519E-001;-7.153181052293465E-001;
5.228114057028514E+009;-5.409007668495178E-001;-6.440423351438853E-001;
5.232116058029015E+009;-6.334265470504761E-001;-5.522037723491410E-001;
5.236118059029514E+009;-7.120640873908997E-001;-4.529276875982162E-001;
5.240120060030015E+009;-7.742857933044434E-001;-3.363352014513213E-001;
5.244122061030516E+009;-8.152217864990234E-001;-2.137470080382178E-001;
5.248124062031015E+009;-8.373990058898926E-001;-7.845056681289647E-002;
5.252126063031516E+009;-8.367588520050049E-001;5.402194457836955E-002;
5.256128064032016E+009;-8.155604004859924E-001;1.868130110508610E-001;
5.260130065032517E+009;-7.711603045463562E-001;3.179683535842146E-001;
5.264132066033016E+009;-6.991342306137085E-001;4.385314193840529E-001;
5.268134067033517E+009;-6.134876608848572E-001;5.473542607782960E-001;
5.272136068034017E+009;-5.049977302551270E-001;6.351891383178460E-001;
5.276138069034517E+009;-3.906045556068420E-001;7.059500480614076E-001;
5.280140070035017E+009;-2.617279589176178E-001;7.575409409902458E-001;
5.284142071035518E+009;-1.266241818666458E-001;7.836739746261697E-001;
5.288144072036018E+009;6.979946047067642E-003;7.875765084662383E-001;
5.292146073036518E+009;1.386000066995621E-001;7.710764815659078E-001;
5.296148074037019E+009;2.681433856487274E-001;7.345584702694150E-001;
5.300150075037519E+009;3.842593133449554E-001;6.801621581044257E-001;
5.304152076038019E+009;4.925832450389862E-001;6.013849182146587E-001;
5.308154077038519E+009;5.863522887229919E-001;5.196368460465246E-001;
5.312156078039020E+009;6.663628816604614E-001;4.224440748117271E-001;
5.316158079039520E+009;7.317563891410828E-001;3.127919993977207E-001;
5.320160080040020E+009;7.769356966018677E-001;2.011275584098751E-001;
5.324162081040521E+009;8.048108220100403E-001;7.856101960447241E-002;
5.328164082041020E+009;8.203788399696350E-001;-4.212253149141434E-002;
5.332166083041521E+009;8.136677742004395E-001;-1.643456924371431E-001;
5.336168084042021E+009;7.855956554412842E-001;-2.814755899785886E-001;
5.340170085042522E+009;7.453589439392090E-001;-4.029353193603438E-001;
5.344172086043021E+009;6.908027529716492E-001;-5.067213564459656E-001;
5.348174087043522E+009;6.166120767593384E-001;-6.058146010641635E-001;
5.352176088044022E+009;5.302726626396179E-001;-6.912777827298893E-001;
5.356178089044522E+009;4.294279217720032E-001;-7.644865887406421E-001;
5.360180090045023E+009;3.204273879528046E-001;-8.211692827569762E-001;
5.364182091045523E+009;2.026734054088593E-001;-8.596821536547271E-001;
5.368184092046023E+009;8.055389672517777E-002;-8.792675585381374E-001;
5.372186093046523E+009;-4.648483917117119E-002;-8.787132533188800E-001;
5.376188094047024E+009;-1.731256246566773E-001;-8.612249237919529E-001;
5.380190095047524E+009;-2.958304584026337E-001;-8.223379658429438E-001;
5.384192096048024E+009;-4.092614054679871E-001;-7.687428543111711E-001;
5.388194097048524E+009;-5.127408504486084E-001;-6.914667487721965E-001;
5.392196098049025E+009;-6.078423857688904E-001;-6.017485981634574E-001;
5.396198099049524E+009;-6.841627955436707E-001;-4.919136235614211E-001;
5.400200100050025E+009;-7.463569641113281E-001;-3.801689486725865E-001;
5.404202101050526E+009;-7.842624187469482E-001;-2.506134666532049E-001;
5.408204102051025E+009;-8.104016780853272E-001;-1.263310104476222E-001;
5.412206103051526E+009;-8.060784339904785E-001;1.106618967931389E-002;
5.416208104052026E+009;-7.874845266342163E-001;1.440199230252133E-001;
5.420210105052527E+009;-7.459456324577332E-001;2.741061864597516E-001;
5.424212106053026E+009;-6.862864494323731E-001;3.910968607916089E-001;
5.428214107053527E+009;-6.072025895118713E-001;5.004152937645872E-001;
5.432216108054027E+009;-5.120927095413208E-001;5.977232525552200E-001;
5.436218109054527E+009;-4.017834365367889E-001;6.786558059158838E-001;
5.440220110055028E+009;-2.846277058124542E-001;7.394189515063266E-001;
5.444222111055528E+009;-1.528604775667191E-001;7.783802299796678E-001;
5.448224112056028E+009;-1.755828410387039E-002;7.967834060786408E-001;
5.452226113056528E+009;1.164666488766670E-001;7.923715484465232E-001;
5.456228114057029E+009;2.491971105337143E-001;7.676101951351591E-001;
5.460230115057529E+009;3.753453791141510E-001;7.190405772598782E-001;
5.464232116058029E+009;4.910802841186523E-001;6.527776269017177E-001;
5.468234117058529E+009;5.908230543136597E-001;5.686437256219267E-001;
5.472236118059030E+009;6.749270558357239E-001;4.698745241595350E-001;
5.476238119059530E+009;7.443395256996155E-001;3.591711929954675E-001;
5.480240120060030E+009;7.920020222663879E-001;2.425549971333408E-001;
5.484242121060531E+009;8.223251104354858E-001;1.179416968879564E-001;
5.488244122061030E+009;8.316445946693420E-001;-2.103617099518451E-003;
5.492246123061531E+009;8.256895542144775E-001;-1.268810026347136E-001;
5.496248124062031E+009;7.978603839874268E-001;-2.430836640398857E-001;
5.500250125062532E+009;7.555525302886963E-001;-3.611074313561905E-001;
5.504252126063031E+009;6.923790574073792E-001;-4.599352016072507E-001;
5.508254127063532E+009;6.248714327812195E-001;-5.523390811181065E-001;
5.512256128064032E+009;5.376930832862854E-001;-6.375809769321108E-001;
5.516258129064532E+009;4.472292363643646E-001;-7.084351144807036E-001;
5.520260130065033E+009;3.430383205413818E-001;-7.654133905972940E-001;
5.524262131065533E+009;2.369148135185242E-001;-8.077344195094964E-001;
5.528264132066033E+009;1.165762543678284E-001;-8.379811068940836E-001;
5.532266133066533E+009;-1.806629239581525E-003;-8.473096839837775E-001;
5.536268134067034E+009;-1.207710355520248E-001;-8.420784555472555E-001;
5.540270135067534E+009;-2.401858419179916E-001;-8.167738777561284E-001;
5.544272136068034E+009;-3.563990592956543E-001;-7.747120607277446E-001;
5.548274137068534E+009;-4.655067920684815E-001;-7.186392584298370E-001;
5.552276138069035E+009;-5.668890476226807E-001;-6.433399651773775E-001;
5.556278139069534E+009;-6.589779257774353E-001;-5.513799384473610E-001;
5.560280140070035E+009;-7.342889308929443E-001;-4.450436334622956E-001;
5.564282141070536E+009;-7.917382717132568E-001;-3.270184717962550E-001;
5.568284142071035E+009;-8.328028321266174E-001;-1.980148557598937E-001;
5.572286143071536E+009;-8.463771939277649E-001;-6.293267899106024E-002;
5.576288144072036E+009;-8.432800769805908E-001;7.013251915923402E-002;
5.580290145072537E+009;-8.122474551200867E-001;2.055760047040238E-001;
5.584292146073036E+009;-7.586051225662231E-001;3.348674984464659E-001;
5.588294147073537E+009;-6.861969232559204E-001;4.513972266223181E-001;
5.592296148074038E+009;-5.923730731010437E-001;5.560695687356274E-001;
5.596298149074537E+009;-4.847737848758698E-001;6.403149346638120E-001;
5.600300150075037E+009;-3.649418056011200E-001;7.078180821923026E-001;
5.604302151075538E+009;-2.320204526185989E-001;7.511926396944637E-001;
5.608304152076038E+009;-9.757496416568756E-002;7.750063916158310E-001;
5.612306153076538E+009;3.638286516070366E-002;7.770488281762202E-001;
5.616308154077039E+009;1.717569530010223E-001;7.523285155435179E-001;
5.620310155077539E+009;2.995825707912445E-001;7.132304435418958E-001;
5.624312156078039E+009;4.127388894557953E-001;6.539364017296254E-001;
5.628314157078539E+009;5.196027159690857E-001;5.759446292852655E-001;
5.632316158079040E+009;6.095576286315918E-001;4.899898845199202E-001;
5.636318159079540E+009;6.889850497245789E-001;3.862478924771696E-001;
5.640320160080040E+009;7.432659268379211E-001;2.726042907232457E-001;
5.644322161080541E+009;7.913041710853577E-001;1.572439588521968E-001;
5.648324162081040E+009;8.146730065345764E-001;3.566691962706556E-002;
5.652326163081541E+009;8.208310604095459E-001;-9.065642693980457E-002;
5.656328164082041E+009;8.073101043701172E-001;-2.124508894833090E-001;
5.660330165082542E+009;7.761062383651733E-001;-3.316623572800401E-001;
5.664332166083041E+009;7.283163070678711E-001;-4.430428775323620E-001;
5.668334167083542E+009;6.633014678955078E-001;-5.482720069516301E-001;
5.672336168084042E+009;5.851122140884399E-001;-6.374590898029037E-001;
5.676338169084542E+009;4.952719807624817E-001;-7.225727223518419E-001;
5.680340170085043E+009;3.910740613937378E-001;-7.849473895784789E-001;
5.684342171085543E+009;2.794966697692871E-001;-8.297483572585440E-001;
5.688344172086043E+009;1.580620408058167E-001;-8.618738480859447E-001;
5.692346173086543E+009;3.890631347894669E-002;-8.752637145440534E-001;
5.696348174087044E+009;-8.121639490127564E-002;-8.721026437622115E-001;
5.700350175087544E+009;-2.045578062534332E-001;-8.458918623448650E-001;
5.704352176088044E+009;-3.191876709461212E-001;-8.083079636316979E-001;
5.708354177088544E+009;-4.301782548427582E-001;-7.461313933499323E-001;
5.712356178089045E+009;-5.298972129821777E-001;-6.722061173940349E-001;
5.716358179089544E+009;-6.160310506820679E-001;-5.833699027351265E-001;
5.720360180090045E+009;-6.919984817504883E-001;-4.766917540571081E-001;
5.724362181090546E+009;-7.449969053268433E-001;-3.644007727691381E-001;
5.728364182091045E+009;-7.920292019844055E-001;-2.384731111338958E-001;
5.732366183091546E+009;-8.102021217346191E-001;-1.099223929745910E-001;
5.736368184092046E+009;-8.127563595771790E-001;2.372153433611681E-002;
5.740370185092547E+009;-7.948256731033325E-001;1.575200867893729E-001;
5.744372186093046E+009;-7.543401718139648E-001;2.883503105576363E-001;
5.748374187093547E+009;-6.928397417068481E-001;4.084419527675757E-001;
5.752376188094048E+009;-6.076251864433289E-001;5.181358791157693E-001;
5.756378189094547E+009;-5.085040926933289E-001;6.175065743025442E-001;
5.760380190095047E+009;-3.924009799957275E-001;6.947421131709295E-001;
5.764382191095548E+009;-2.662741839885712E-001;7.533959754800934E-001;
5.768384192096048E+009;-1.305692940950394E-001;7.888119684388362E-001;
5.772386193096548E+009;7.900342345237732E-003;8.023391689166634E-001;
5.776388194097049E+009;1.443846970796585E-001;7.873889121102452E-001;
5.780390195097549E+009;2.782484889030457E-001;7.542464213667988E-001;
5.784392196098049E+009;3.982414901256561E-001;6.960920748566446E-001;
5.788394197098549E+009;5.121613144874573E-001;6.254426346949326E-001;
5.792396198099050E+009;6.079084873199463E-001;5.350990184931084E-001;
5.796398199099550E+009;6.856425404548645E-001;4.273230348680327E-001;
5.800400200100050E+009;7.473329305648804E-001;3.151760612861956E-001;
5.804402201100551E+009;7.874979376792908E-001;1.994379896762977E-001;
5.808404202101050E+009;8.090950846672058E-001;7.365108060020872E-002;
5.812406203101551E+009;8.108389377593994E-001;-4.847025283480452E-002;
5.816408204102051E+009;8.016768097877502E-001;-1.673886119070630E-001;
5.820410205102552E+009;7.683314681053162E-001;-2.802074263556182E-001;
5.824412206103051E+009;7.223625779151917E-001;-3.937817567203457E-001;
5.828414207103552E+009;6.614788174629211E-001;-4.941207546622598E-001;
5.832416208104052E+009;5.904420018196106E-001;-5.838824108051395E-001;
5.836418209104552E+009;5.012926459312439E-001;-6.679057201270079E-001;
5.840420210105053E+009;4.079211056232452E-001;-7.321144989446053E-001;
5.844422211105553E+009;3.028628230094910E-001;-7.880004172374450E-001;
5.848424212106053E+009;1.908124685287476E-001;-8.277191588248509E-001;
5.852426213106553E+009;7.303515076637268E-002;-8.509247448897601E-001;
5.856428214107054E+009;-4.462828859686852E-002;-8.561560342837652E-001;
5.860430215107554E+009;-1.624654829502106E-001;-8.474482281568816E-001;
5.864432216108054E+009;-2.830815911293030E-001;-8.211773384879852E-001;
5.868434217108554E+009;-3.985327482223511E-001;-7.719864424036688E-001;
5.872436218109055E+009;-5.068408846855164E-001;-7.093480031522123E-001;
5.876438219109554E+009;-6.039203405380249E-001;-6.313214639369802E-001;
5.880440220110055E+009;-6.918886899948120E-001;-5.324758905603431E-001;
5.884442221110556E+009;-7.610621452331543E-001;-4.240369812808820E-001;
5.888444222111055E+009;-8.105210065841675E-001;-3.030145863567781E-001;
5.892446223111556E+009;-8.451035022735596E-001;-1.699971307165678E-001;
5.896448224112056E+009;-8.506256937980652E-001;-3.650360655712906E-002;
5.900450225112557E+009;-8.385074138641357E-001;1.000048238897434E-001;
5.904452226113056E+009;-8.072771430015564E-001;2.285496494289749E-001;
5.908454227113557E+009;-7.461186647415161E-001;3.567672800893402E-001;
5.912456228114058E+009;-6.674643158912659E-001;4.691025952635850E-001;
5.916458229114557E+009;-5.733428001403809E-001;5.687011504726390E-001;
5.920460230115058E+009;-4.581501781940460E-001;6.510104348625401E-001;
5.924462231115558E+009;-3.349564671516419E-001;7.132173974329955E-001;
5.928464232116058E+009;-2.028257846832275E-001;7.547064698031142E-001;
5.932466233116558E+009;-6.765421479940414E-002;7.728409829980211E-001;
5.936468234117059E+009;6.845853477716446E-002;7.695968227049580E-001;
5.940470235117559E+009;2.032121419906616E-001;7.434879833938415E-001;
5.944472236118059E+009;3.292363584041596E-001;6.969425744375547E-001;
5.948474237118559E+009;4.473545551300049E-001;6.326193139734790E-001;
5.952476238119060E+009;5.514529347419739E-001;5.487167745182447E-001;
5.956478239119560E+009;6.408823132514954E-001;4.511167018200579E-001;
5.960480240120060E+009;7.137694954872131E-001;3.422229395325430E-001;
5.964482241120561E+009;7.694395184516907E-001;2.257411179066795E-001;
5.968484242121060E+009;8.054048418998718E-001;1.034443874711329E-001;
5.972486243121561E+009;8.209673762321472E-001;-2.187622969246193E-002;
5.976488244122061E+009;8.158168792724609E-001;-1.483543938327803E-001;
5.980490245122562E+009;7.933841347694397E-001;-2.714741051995447E-001;
5.984492246123061E+009;7.517459988594055E-001;-3.859791453336787E-001;
5.988494247123562E+009;6.977553963661194E-001;-4.942805435500732E-001;
5.992496248124062E+009;6.243845224380493E-001;-5.879019565547051E-001;
5.996498249124562E+009;5.407755970954895E-001;-6.727002350648257E-001;
6.000500250125063E+009;4.441156089305878E-001;-7.441602462901513E-001;
6.004502251125563E+009;3.418638110160828E-001;-7.991970999281810E-001;
6.008504252126063E+009;2.305416017770767E-001;-8.394720410435801E-001;
6.012506253126563E+009;1.136212199926376E-001;-8.647780310228415E-001;
6.016508254127064E+009;-1.035962835885584E-003;-8.687568576299736E-001;
6.020510255127564E+009;-1.229560673236847E-001;-8.596309770711229E-001;
6.024512256128064E+009;-2.401205897331238E-001;-8.325043209196881E-001;
6.028514257128564E+009;-3.527421355247498E-001;-7.900242472981002E-001;
6.032516258129065E+009;-4.586793482303619E-001;-7.246609032706474E-001;
6.036518259129564E+009;-5.527586340904236E-001;-6.518058017807750E-001;
6.040520260130065E+009;-6.371437907218933E-001;-5.599653870270163E-001;
6.044522261130566E+009;-7.097259163856506E-001;-4.561146332579804E-001;
6.048524262131065E+009;-7.666079401969910E-001;-3.432449478290547E-001;
6.052526263131566E+009;-8.043470382690430E-001;-2.187529008892027E-001;
6.056528264132066E+009;-8.281506299972534E-001;-8.888006542674440E-002;
6.060530265132567E+009;-8.262773752212524E-001;4.592892809041355E-002;
6.064532266133066E+009;-8.043861985206604E-001;1.778699961387654E-001;
6.068534267133567E+009;-7.588991522789002E-001;3.086306163500227E-001;
6.072536268134068E+009;-6.943843960762024E-001;4.316945015780566E-001;
6.076538269134567E+009;-6.052056550979614E-001;5.451357446077503E-001;
6.080540270135067E+009;-5.025922656059265E-001;6.379906927026012E-001;
6.084542271135568E+009;-3.828718662261963E-001;7.125508586118287E-001;
6.088544272136068E+009;-2.527796924114227E-001;7.660572080133548E-001;
6.092546273136568E+009;-1.127785444259644E-001;7.950432727718417E-001;
6.096548274137069E+009;2.731322869658470E-002;8.005263733777357E-001;
6.100550275137569E+009;1.656696498394013E-001;7.817016387500096E-001;
6.104552276138069E+009;2.960792779922485E-001;7.407133501161693E-001;
6.108554277138569E+009;4.192669689655304E-001;6.766827721695125E-001;
6.112556278139070E+009;5.282273292541504E-001;5.958213460098484E-001;
6.116558279139570E+009;6.183735728263855E-001;4.986824199879185E-001;
6.120560280140070E+009;6.922062039375305E-001;3.928603149222951E-001;
