freq[Hz];db:Trc1_S21;ang:Trc1_S21;
6.600000000000000E+009;-5.196099525229868E+001;8.382101582433288E+001;
6.601000500250125E+009;-5.152734749467290E+001;8.303090653724242E+001;
6.602001000500250E+009;-5.219082117354004E+001;7.737679889183293E+001;
6.603001500750375E+009;-5.169783173431921E+001;7.580851049599868E+001;
6.604002001000501E+009;-5.194412064121323E+001;7.200419139933953E+001;
6.605002501250626E+009;-5.201473951953450E+001;6.890476278898279E+001;
6.606003001500751E+009;-5.180006716869933E+001;6.846861806334827E+001;
6.607003501750876E+009;-5.200525835166774E+001;6.722392836554910E+001;
6.608004002001000E+009;-5.222655556063909E+001;6.265036509658687E+001;
6.609004502251125E+009;-5.223540139153849E+001;6.123497876612714E+001;
6.610005002501250E+009;-5.209596737018666E+001;6.219665660124806E+001;
6.611005502751376E+009;-5.219281598332541E+001;5.729690080128579E+001;
6.612006003001501E+009;-5.218833531041300E+001;5.754115163736391E+001;
6.613006503251626E+009;-5.245018308540404E+001;5.228759593430941E+001;
6.614007003501751E+009;-5.238119814053918E+001;5.055624765570526E+001;
6.615007503751876E+009;-5.214907585451313E+001;4.762807202657935E+001;
6.616008004002001E+009;-5.215875955147863E+001;4.580771631876226E+001;
6.617008504252126E+009;-5.241280191628189E+001;4.436476168044308E+001;
6.618009004502251E+009;-5.261461755489030E+001;4.201494786535493E+001;
6.619009504752377E+009;-5.235605356597783E+001;3.969671664548904E+001;
6.620010005002502E+009;-5.257423574921408E+001;3.591392365029353E+001;
6.621010505252626E+009;-5.260120827551882E+001;3.258430940079330E+001;
6.622011005502751E+009;-5.258734460339047E+001;3.115307207613186E+001;
6.623011505752876E+009;-5.236244682312432E+001;2.834613326384964E+001;
6.624012006003001E+009;-5.277897526756936E+001;2.425892621078389E+001;
6.625012506253126E+009;-5.269429004230785E+001;2.466445761694049E+001;
6.626013006503252E+009;-5.286058638440710E+001;2.263372475811372E+001;
6.627013506753377E+009;-5.261853946663022E+001;2.184506712334596E+001;
6.628014007003502E+009;-5.296326921966615E+001;1.967585251866607E+001;
6.629014507253627E+009;-5.314750131570460E+001;1.424740998194341E+001;
6.630015007503752E+009;-5.325377226434853E+001;1.583425748946776E+001;
6.631015507753877E+009;-5.301917825423855E+001;1.251897152488730E+001;
6.632016008004002E+009;-5.304009677510999E+001;1.036410139899571E+001;
6.633016508254128E+009;-5.304666900453911E+001;8.816612863227670E+000;
6.634017008504252E+009;-5.272271409066938E+001;8.305902029013831E+000;
6.635017508754377E+009;-5.273715792773320E+001;2.788668518656547E+000;
6.636018009004502E+009;-5.297968191461477E+001;7.677164744400803E-001;
6.637018509254627E+009;-5.327013423665841E+001;5.286194805773400E-001;
6.638019009504752E+009;-5.335482375420713E+001;-1.999577995723663E+000;
6.639019509754877E+009;-5.337033203890454E+001;-3.864122972963572E+000;
6.640020010005003E+009;-5.325752300200734E+001;-5.116366690006884E+000;
6.641020510255128E+009;-5.337871125344370E+001;-7.971663148694823E+000;
6.642021010505253E+009;-5.334099332100055E+001;-8.621387107019796E+000;
6.643021510755378E+009;-5.362061033741652E+001;-9.554375910883053E+000;
6.644022011005503E+009;-5.301275021481337E+001;-1.179169034051759E+001;
6.645022511255628E+009;-5.382900948337480E+001;-1.442195981036213E+001;
6.646023011505753E+009;-5.346137355252230E+001;-1.335127713333284E+001;
6.647023511755878E+009;-5.390735852127013E+001;-1.784641792499535E+001;
6.648024012006003E+009;-5.380919699749131E+001;-2.085622943432670E+001;
6.649024512256128E+009;-5.350298552739650E+001;-2.155281177124855E+001;
6.650025012506253E+009;-5.390877798897952E+001;-2.428309228653184E+001;
6.651025512756378E+009;-5.364106814780050E+001;-2.529175475000804E+001;
6.652026013006503E+009;-5.338584360397450E+001;-2.647369511097475E+001;
6.653026513256628E+009;-5.360857014715963E+001;-3.087722843545236E+001;
6.654027013506753E+009;-5.371338875587700E+001;-2.973517877090506E+001;
6.655027513756879E+009;-5.363576210620892E+001;-3.096763859126637E+001;
6.656028014007004E+009;-5.404719470035816E+001;-3.279305631041459E+001;
6.657028514257129E+009;-5.393766657178549E+001;-3.460546917494627E+001;
6.658029014507254E+009;-5.382954019076365E+001;-3.879457080477218E+001;
6.659029514757379E+009;-5.385042677342346E+001;-3.839353992543708E+001;
6.660030015007504E+009;-5.383612289427770E+001;-4.187378688536082E+001;
6.661030515257628E+009;-5.393163734458705E+001;-4.018280550523809E+001;
6.662031015507754E+009;-5.362708341521510E+001;-4.416577170766612E+001;
6.663031515757879E+009;-5.357711235538513E+001;-4.633918288418781E+001;
6.664032016008004E+009;-5.347337874053982E+001;-4.834676999872897E+001;
6.665032516258129E+009;-5.382016070293890E+001;-4.775337387348903E+001;
6.666033016508254E+009;-5.351135399254197E+001;-4.957170545051756E+001;
6.667033516758379E+009;-5.367862531410828E+001;-5.027444272586497E+001;
6.668034017008504E+009;-5.359555076591228E+001;-5.338124107558470E+001;
6.669034517258629E+009;-5.342082272642678E+001;-5.512993845405606E+001;
6.670035017508755E+009;-5.349183135061220E+001;-5.589634119735426E+001;
6.671035517758880E+009;-5.319291716610427E+001;-5.588700830188727E+001;
6.672036018009005E+009;-5.327685786606694E+001;-5.751934958266267E+001;
6.673036518259130E+009;-5.324129332823416E+001;-6.087997235272357E+001;
6.674037018509255E+009;-5.303108834524818E+001;-6.200106013071589E+001;
6.675037518759379E+009;-5.356177978365848E+001;-6.440243274824009E+001;
6.676038019009504E+009;-5.290321344803589E+001;-6.607829701036077E+001;
6.677038519259630E+009;-5.315049024587208E+001;-6.717307606764933E+001;
6.678039019509755E+009;-5.285796368361937E+001;-6.972022715311810E+001;
6.679039519759880E+009;-5.259462543501518E+001;-6.987608595886067E+001;
6.680040020010005E+009;-5.305115792342642E+001;-7.191149707269480E+001;
6.681040520260130E+009;-5.284493824631907E+001;-7.470235587560455E+001;
6.682041020510255E+009;-5.277452781488577E+001;-7.778242287332991E+001;
6.683041520760380E+009;-5.253630275825817E+001;-7.692318506308281E+001;
6.684042021010506E+009;-5.233297015251954E+001;-7.962270236216544E+001;
6.685042521260631E+009;-5.244173012600439E+001;-8.070337213606179E+001;
6.686043021510756E+009;-5.223715936262545E+001;-8.282565034734149E+001;
6.687043521760881E+009;-5.166192421612859E+001;-8.697740227754859E+001;
6.688044022011005E+009;-5.144910800692312E+001;-8.709137565319553E+001;
6.689044522261130E+009;-5.186414146532375E+001;-8.980373825254559E+001;
6.690045022511255E+009;-5.191870497771425E+001;-9.105985411730484E+001;
6.691045522761381E+009;-5.187788896991361E+001;-9.137434980898463E+001;
6.692046023011506E+009;-5.131831977655022E+001;-9.397763704591550E+001;
6.693046523261631E+009;-5.149914717556489E+001;-9.846278542904592E+001;
6.694047023511756E+009;-5.116908970093652E+001;-9.994362429859604E+001;
6.695047523761881E+009;-5.105523884164856E+001;-1.019498184895481E+002;
6.696048024012006E+009;-5.090693348613440E+001;-1.049775879904570E+002;
6.697048524262131E+009;-5.046386295230280E+001;-1.047966089936523E+002;
6.698049024512256E+009;-5.091864247764451E+001;-1.080234214255350E+002;
6.699049524762382E+009;-5.032156152719446E+001;-1.101651075425283E+002;
6.700050025012507E+009;-5.029033135615116E+001;-1.142082594403679E+002;
6.701050525262631E+009;-5.030939251633334E+001;-1.154886295799512E+002;
6.702051025512756E+009;-4.992989410266684E+001;-1.186227282444052E+002;
6.703051525762881E+009;-4.978259636209601E+001;-1.184351005230150E+002;
6.704052026013006E+009;-4.968538630755173E+001;-1.232276084910995E+002;
6.705052526263131E+009;-4.989129250765504E+001;-1.241376633446913E+002;
6.706053026513257E+009;-4.959653292430520E+001;-1.267681882976668E+002;
6.707053526763382E+009;-4.962784221350967E+001;-1.309895325293403E+002;
6.708054027013507E+009;-4.933893527410409E+001;-1.337299591722562E+002;
6.709054527263632E+009;-4.941564598415874E+001;-1.365199317294237E+002;
6.710055027513757E+009;-4.940853714191001E+001;-1.365643442130487E+002;
6.711055527763882E+009;-4.909165315845879E+001;-1.411072333237191E+002;
6.712056028014007E+009;-4.887950025506279E+001;-1.447306438565134E+002;
6.713056528264133E+009;-4.915925560125906E+001;-1.459941700048201E+002;
6.714057028514257E+009;-4.890760554864396E+001;-1.488519099978160E+002;
6.715057528764382E+009;-4.873735121348377E+001;-1.511273441246267E+002;
6.716058029014507E+009;-4.864637405282284E+001;-1.563907183943567E+002;
6.717058529264632E+009;-4.861308118018788E+001;-1.586125988732659E+002;
6.718059029514757E+009;-4.837921161277219E+001;-1.614227533297014E+002;
6.719059529764882E+009;-4.845725477883352E+001;-1.657192058992033E+002;
6.720060030015008E+009;-4.847423116405682E+001;-1.663223741442486E+002;
6.721060530265133E+009;-4.839843332050365E+001;-1.712529519948173E+002;
6.722061030515258E+009;-4.836563059524467E+001;-1.741487642496658E+002;
6.723061530765383E+009;-4.850667957127351E+001;-1.774274009576861E+002;
6.724062031015508E+009;-4.812975752866504E+001;-1.792027538676903E+002;
6.725062531265633E+009;-4.832469149107347E+001;1.769103473683132E+002;
6.726063031515758E+009;-4.842944332953599E+001;1.737083433364172E+002;
6.727063531765883E+009;-4.834712559800168E+001;1.714070859277607E+002;
6.728064032016008E+009;-4.835144139941308E+001;1.675240134288154E+002;
6.729064532266133E+009;-4.826742329729446E+001;1.654855375886865E+002;
6.730065032516258E+009;-4.843918776747136E+001;1.624736961945633E+002;
6.731065532766383E+009;-4.858070188944297E+001;1.589924702247455E+002;
6.732066033016508E+009;-4.864773017816543E+001;1.568848378155077E+002;
6.733066533266633E+009;-4.851146236742392E+001;1.532681100404469E+002;
6.734067033516758E+009;-4.863560256481427E+001;1.481928483856085E+002;
6.735067533766884E+009;-4.887907918025914E+001;1.477329179813661E+002;
6.736068034017009E+009;-4.873473984419132E+001;1.447856696979393E+002;
6.737068534267134E+009;-4.899935838961353E+001;1.411808291251064E+002;
6.738069034517259E+009;-4.903957952522710E+001;1.391865191841034E+002;
6.739069534767384E+009;-4.923926861523060E+001;1.356608948475381E+002;
6.740070035017509E+009;-4.915444171503017E+001;1.344520428116832E+002;
6.741070535267633E+009;-4.906701026777791E+001;1.330670892874661E+002;
6.742071035517759E+009;-4.925531141918928E+001;1.271935487456916E+002;
6.743071535767884E+009;-4.925524780335057E+001;1.255399757458367E+002;
6.744072036018009E+009;-4.961587655023876E+001;1.235745897238369E+002;
6.745072536268134E+009;-4.995227113037644E+001;1.213730261756750E+002;
6.746073036518259E+009;-4.975810459811302E+001;1.185516825719298E+002;
6.747073536768384E+009;-5.009356880661129E+001;1.163122064920698E+002;
6.748074037018509E+009;-5.000439024373312E+001;1.142883053272462E+002;
6.749074537268635E+009;-5.037683260582831E+001;1.120691977439709E+002;
6.750075037518760E+009;-5.045402968285215E+001;1.100040304430393E+002;
6.751075537768885E+009;-5.038211039717508E+001;1.086999464512378E+002;
6.752076038019010E+009;-5.065966684442292E+001;1.056711247135696E+002;
6.753076538269135E+009;-5.066950887009323E+001;1.033377194256612E+002;
6.754077038519260E+009;-5.063547097993295E+001;1.019918510440850E+002;
6.755077538769384E+009;-5.102610522523774E+001;9.871095724024697E+001;
6.756078039019509E+009;-5.081157964086395E+001;9.862002589057939E+001;
6.757078539269635E+009;-5.100033331931446E+001;9.490847218362883E+001;
6.758079039519760E+009;-5.101443875806844E+001;9.348033732925475E+001;
6.759079539769885E+009;-5.103364351810497E+001;9.075893229663060E+001;
6.760080040020010E+009;-5.148249619092459E+001;8.886731704214543E+001;
6.761080540270135E+009;-5.166389209564801E+001;9.009207980772368E+001;
6.762081040520260E+009;-5.151943894561226E+001;8.635017021612882E+001;
6.763081540770385E+009;-5.144485137361981E+001;8.563113539593213E+001;
6.764082041020511E+009;-5.130679220157317E+001;8.368244667411354E+001;
6.765082541270636E+009;-5.161868195835817E+001;8.190499717169541E+001;
6.766083041520761E+009;-5.145420510947033E+001;8.121220004865633E+001;
6.767083541770886E+009;-5.157317593019248E+001;7.888649288666402E+001;
6.768084042021010E+009;-5.151268230796944E+001;7.639897320442711E+001;
6.769084542271135E+009;-5.157184722893113E+001;7.611080689030828E+001;
6.770085042521260E+009;-5.182865112396351E+001;7.480446166843446E+001;
6.771085542771386E+009;-5.203139475628898E+001;7.152092861587765E+001;
6.772086043021511E+009;-5.209439611026678E+001;6.999820075023132E+001;
6.773086543271636E+009;-5.190581318563669E+001;6.927926590600626E+001;
6.774087043521761E+009;-5.174053457754808E+001;6.826763452951064E+001;
6.775087543771886E+009;-5.194975855543328E+001;6.504305243185502E+001;
6.776088044022011E+009;-5.203551507186458E+001;6.357138167297200E+001;
6.777088544272136E+009;-5.187472172032406E+001;6.197962806975725E+001;
6.778089044522261E+009;-5.170182028372083E+001;6.239573017220143E+001;
6.779089544772387E+009;-5.190463120930444E+001;5.724071771946210E+001;
6.780090045022512E+009;-5.185027480749048E+001;5.676078271825314E+001;
6.781090545272636E+009;-5.212460743760497E+001;5.591897090917376E+001;
6.782091045522761E+009;-5.202079064677883E+001;5.384942769789410E+001;
6.783091545772886E+009;-5.180057001119036E+001;5.128000212843579E+001;
6.784092046023011E+009;-5.166525840666522E+001;4.970877799621172E+001;
6.785092546273136E+009;-5.190384556126198E+001;4.843545937639367E+001;
6.786093046523262E+009;-5.168384722552672E+001;4.608533421720779E+001;
6.787093546773387E+009;-5.173327783735758E+001;4.521988181141010E+001;
6.788094047023512E+009;-5.185527317296766E+001;4.221971651619830E+001;
6.789094547273637E+009;-5.201700692268823E+001;4.255611040211348E+001;
6.790095047523762E+009;-5.159782849797835E+001;3.971769368525730E+001;
6.791095547773887E+009;-5.167304068316287E+001;3.776599816678553E+001;
6.792096048024012E+009;-5.183377565623845E+001;3.493734586493797E+001;
6.793096548274138E+009;-5.188884440284970E+001;3.357254235790866E+001;
6.794097048524262E+009;-5.155053305067406E+001;3.119584375019599E+001;
6.795097548774387E+009;-5.175114552138789E+001;3.109331009493422E+001;
6.796098049024512E+009;-5.124828468361661E+001;2.824437322238842E+001;
6.797098549274637E+009;-5.153054653644814E+001;2.535984858870870E+001;
6.798099049524762E+009;-5.174925415985018E+001;2.500256511255096E+001;
6.799099549774887E+009;-5.141754572516341E+001;2.334211360309910E+001;
6.800100050025013E+009;-5.143633948904626E+001;2.226532066405391E+001;
6.801100550275138E+009;-5.140738204552739E+001;1.945367565263341E+001;
6.802101050525263E+009;-5.114284372979738E+001;1.746612650396657E+001;
6.803101550775388E+009;-5.156605729787027E+001;1.547411146473865E+001;
6.804102051025513E+009;-5.130963583315924E+001;1.456384299083186E+001;
6.805102551275638E+009;-5.124099582451783E+001;1.422659631945558E+001;
6.806103051525763E+009;-5.124557461287693E+001;1.080392334725350E+001;
6.807103551775888E+009;-5.129418314767262E+001;1.065222312698552E+001;
6.808104052026013E+009;-5.148758308599363E+001;8.692080063319056E+000;
6.809104552276138E+009;-5.122221542565194E+001;4.391089025229237E+000;
6.810105052526263E+009;-5.100812461192821E+001;1.337143552025219E+000;
6.811105552776388E+009;-5.096573338054945E+001;1.381897793765356E+000;
6.812106053026513E+009;-5.106243620532301E+001;-1.865367853876774E+000;
6.813106553276638E+009;-5.082539065315760E+001;-2.234267524439035E+000;
6.814107053526763E+009;-5.078150857698966E+001;-5.960317444565750E+000;
6.815107553776889E+009;-5.058120282970026E+001;-4.995530008974761E+000;
6.816108054027014E+009;-5.076445032425244E+001;-7.795750429483178E+000;
6.817108554277139E+009;-5.020407405979249E+001;-9.679932099307484E+000;
6.818109054527264E+009;-5.060743943791054E+001;-1.073001618564225E+001;
6.819109554777389E+009;-5.024157304036765E+001;-1.528952221393052E+001;
6.820110055027514E+009;-5.029016448966413E+001;-1.740132878443444E+001;
6.821110555277638E+009;-5.022771076648969E+001;-1.872732292600795E+001;
6.822111055527764E+009;-5.026871981270892E+001;-1.893066531410230E+001;
6.823111555777889E+009;-5.020403222153629E+001;-2.249348212365908E+001;
6.824112056028014E+009;-4.982357072234244E+001;-2.337930670365292E+001;
6.825112556278139E+009;-5.011297065166322E+001;-2.545666215048719E+001;
6.826113056528264E+009;-4.990894659454324E+001;-2.816817388929289E+001;
6.827113556778389E+009;-4.993129671254185E+001;-2.952759242528475E+001;
6.828114057028514E+009;-4.980436874517734E+001;-3.254689563251239E+001;
6.829114557278639E+009;-4.945590098455919E+001;-3.575857168038431E+001;
6.830115057528765E+009;-4.966272441873237E+001;-3.507111432607972E+001;
6.831115557778890E+009;-4.946121942270253E+001;-3.973310266582046E+001;
6.832116058029015E+009;-4.946964129058713E+001;-4.216866838759318E+001;
6.833116558279140E+009;-4.917496930218517E+001;-4.384663160364729E+001;
6.834117058529265E+009;-4.925564644621239E+001;-4.641621013358233E+001;
6.835117558779389E+009;-4.908013753472856E+001;-4.980131289073781E+001;
6.836118059029514E+009;-4.914654546153329E+001;-5.067032221033182E+001;
6.837118559279640E+009;-4.880749404983070E+001;-5.318094668919002E+001;
6.838119059529765E+009;-4.871456401561242E+001;-5.443171705561985E+001;
6.839119559779890E+009;-4.881101656801355E+001;-5.631823868411728E+001;
6.840120060030015E+009;-4.842237739297915E+001;-5.979010350207445E+001;
6.841120560280140E+009;-4.850295345795820E+001;-6.305087318553260E+001;
6.842121060530265E+009;-4.822831781931848E+001;-6.433110843989971E+001;
6.843121560780390E+009;-4.847604036964756E+001;-6.625870145002580E+001;
6.844122061030516E+009;-4.841929404243480E+001;-6.869965144685841E+001;
6.845122561280641E+009;-4.796207705565695E+001;-7.193486448870030E+001;
6.846123061530766E+009;-4.813191214361095E+001;-7.514522760739337E+001;
6.847123561780891E+009;-4.807562994544239E+001;-7.674941775579814E+001;
6.848124062031015E+009;-4.810678486700022E+001;-8.029689240420680E+001;
6.849124562281140E+009;-4.806455228123504E+001;-8.119331352975090E+001;
6.850125062531265E+009;-4.793657097165588E+001;-8.451719401043894E+001;
6.851125562781391E+009;-4.787978199831635E+001;-8.740659131224660E+001;
6.852126063031516E+009;-4.775689993050539E+001;-9.029572359190289E+001;
6.853126563281641E+009;-4.779707316897622E+001;-9.183283664374162E+001;
6.854127063531766E+009;-4.770626023054427E+001;-9.502330283646926E+001;
6.855127563781891E+009;-4.782652833333047E+001;-9.850419594296729E+001;
6.856128064032016E+009;-4.782524043449421E+001;-9.990460854406038E+001;
6.857128564282141E+009;-4.770521831264309E+001;-1.034982486011804E+002;
6.858129064532267E+009;-4.764123171667887E+001;-1.067704644594388E+002;
6.859129564782392E+009;-4.782994843711747E+001;-1.086124594727074E+002;
6.860130065032517E+009;-4.777446174413200E+001;-1.109259723875348E+002;
6.861130565282641E+009;-4.770100705557065E+001;-1.132422328165485E+002;
6.862131065532766E+009;-4.775044265906070E+001;-1.156838396616614E+002;
6.863131565782891E+009;-4.795100946241371E+001;-1.180538636928946E+002;
6.864132066033016E+009;-4.779204463213035E+001;-1.202215726569975E+002;
6.865132566283141E+009;-4.771274820299855E+001;-1.228150541542977E+002;
6.866133066533267E+009;-4.785998411997056E+001;-1.258314075161546E+002;
6.867133566783392E+009;-4.789217986587705E+001;-1.276426723282515E+002;
6.868134067033517E+009;-4.802217809294612E+001;-1.295169138915020E+002;
6.869134567283642E+009;-4.790724007878244E+001;-1.321686187412327E+002;
6.870135067533767E+009;-4.810221363665895E+001;-1.339368597415700E+002;
6.871135567783892E+009;-4.790570059149424E+001;-1.359830933360771E+002;
6.872136068034017E+009;-4.793817202125706E+001;-1.377936938864086E+002;
6.873136568284143E+009;-4.811705864370088E+001;-1.400517760594364E+002;
6.874137068534267E+009;-4.812526334991917E+001;-1.419175971862251E+002;
6.875137568784392E+009;-4.817680461816906E+001;-1.443072371942735E+002;
6.876138069034517E+009;-4.797885829951397E+001;-1.459065514622487E+002;
6.877138569284642E+009;-4.803799998538499E+001;-1.484525605114243E+002;
6.878139069534767E+009;-4.815089051963855E+001;-1.507900840291090E+002;
