freq[Hz];db:Trc1_S21;ang:Trc1_S21;
5.000000000000000E+009;-6.825338231274876E+001;-7.300013876995639E+001;
5.004002001000501E+009;-7.137257048222902E+001;-6.979397734770625E+001;
5.008004002001000E+009;-7.343670878471292E+001;-7.926077817674612E+001;
5.012006003001501E+009;-6.919648709510346E+001;-1.079643987288760E+002;
5.016008004002001E+009;-6.887492793935380E+001;-9.918991310327104E+001;
5.020010005002502E+009;-6.661070971214897E+001;-9.872077905112347E+001;
5.024012006003001E+009;-6.964391253317091E+001;-1.059306769344676E+002;
5.028014007003502E+009;-6.858913664977190E+001;-1.262745419422326E+002;
5.032016008004002E+009;-6.766986037324529E+001;-1.268102640525278E+002;
5.036018009004502E+009;-6.676184121617428E+001;-1.350593953104840E+002;
5.040020010005003E+009;-6.825931202964036E+001;-1.406371972896262E+002;
5.044022011005503E+009;-6.844333942746016E+001;-1.554483581460567E+002;
5.048024012006003E+009;-6.739675523445006E+001;-1.566987264640747E+002;
5.052026013006503E+009;-6.678060977879677E+001;-1.587483671463945E+002;
5.056028014007004E+009;-6.597558660800743E+001;1.650313436486938E+002;
5.060030015007504E+009;-6.529311316756555E+001;1.645293548320514E+002;
5.064032016008004E+009;-6.582823992907662E+001;1.540981085759377E+002;
5.068034017008504E+009;-6.704725338991089E+001;1.493164113182059E+002;
5.072036018009005E+009;-6.616452424814219E+001;1.220986062850291E+002;
5.076038019009504E+009;-6.555165250126738E+001;1.289764689919348E+002;
5.080040020010005E+009;-6.737029004769705E+001;1.186679798584543E+002;
5.084042021010506E+009;-6.608405838721124E+001;1.014680293140589E+002;
5.088044022011005E+009;-6.737540011932092E+001;8.685598857494105E+001;
5.092046023011506E+009;-6.898692571231267E+001;7.964266619480685E+001;
5.096048024012006E+009;-6.985431493985864E+001;6.489695597060364E+001;
5.100050025012507E+009;-6.974800843948431E+001;6.843392499736224E+001;
5.104052026013006E+009;-6.834507152063910E+001;5.705949372111861E+001;
5.108054027013507E+009;-7.117393408064203E+001;6.151880477558527E+001;
5.112056028014007E+009;-6.732815401652016E+001;5.902464656722401E+001;
5.116058029014507E+009;-6.955970566516920E+001;4.113224063599534E+001;
5.120060030015008E+009;-6.660316453045363E+001;3.457219062588553E+001;
5.124062031015508E+009;-6.965985391535136E+001;2.192016843401167E+001;
5.128064032016008E+009;-7.208981280062159E+001;2.602798172121044E+000;
5.132066033016508E+009;-6.765231374118724E+001;1.434965670040457E+001;
5.136068034017009E+009;-6.764868317215240E+001;-1.708957311584822E+000;
5.140070035017509E+009;-6.855326103419067E+001;-1.053294919541247E+001;
5.144072036018009E+009;-6.831934739857182E+001;-1.576655755723702E+000;
5.148074037018509E+009;-6.943757467597968E+001;-2.275580453280577E+001;
5.152076038019010E+009;-6.554126497130352E+001;-2.242072730608216E+001;
5.156078039019509E+009;-6.623369625995031E+001;-4.468971918558481E+001;
5.160080040020010E+009;-6.740903271582039E+001;-4.119718416206823E+001;
5.164082041020511E+009;-6.553639059874735E+001;-5.509079755447898E+001;
5.168084042021010E+009;-6.699188642309946E+001;-5.335703688957707E+001;
5.172086043021511E+009;-6.523952816350194E+001;-7.928853822409192E+001;
5.176088044022011E+009;-6.655745214281318E+001;-8.491075372260021E+001;
5.180090045022512E+009;-6.479465966195846E+001;-9.054645788537600E+001;
5.184092046023011E+009;-6.678759173985023E+001;-1.089652286541702E+002;
5.188094047023512E+009;-6.681352308764654E+001;-1.066025472498830E+002;
5.192096048024012E+009;-6.606312156005879E+001;-1.369545942449850E+002;
5.196098049024512E+009;-6.530033200651950E+001;-1.199843945140168E+002;
5.200100050025013E+009;-6.681879290943431E+001;-1.386680651090761E+002;
5.204102051025513E+009;-6.588004405916897E+001;-1.508420288517244E+002;
5.208104052026013E+009;-6.584269666439491E+001;-1.392165691563091E+002;
5.212106053026513E+009;-6.666361356375218E+001;-1.771194685550926E+002;
5.216108054027014E+009;-6.736734717686254E+001;-1.652669757216852E+002;
5.220110055027514E+009;-6.793791779270214E+001;1.609132433656028E+002;
5.224112056028014E+009;-6.588801568784650E+001;1.699572603669253E+002;
5.228114057028514E+009;-6.824656985747743E+001;1.744555231844753E+002;
5.232116058029015E+009;-6.743455518524755E+001;1.588477229305232E+002;
5.236118059029514E+009;-6.669457844157459E+001;1.521443563457144E+002;
5.240120060030015E+009;-6.698681579685676E+001;1.453319904594678E+002;
5.244122061030516E+009;-6.574629971454363E+001;1.403962181473229E+002;
5.248124062031015E+009;-6.648815437973678E+001;1.266496516123026E+002;
5.252126063031516E+009;-6.506673967516078E+001;1.180122607778446E+002;
5.256128064032016E+009;-6.462043019745308E+001;1.063900244831397E+002;
5.260130065032517E+009;-6.471281354688334E+001;9.313070212075520E+001;
5.264132066033016E+009;-6.464287164127839E+001;8.377783342138123E+001;
5.268134067033517E+009;-6.482987536002013E+001;6.545945816159234E+001;
5.272136068034017E+009;-6.303803443733975E+001;5.514457995949376E+001;
5.276138069034517E+009;-6.485399773118310E+001;5.931801148998309E+001;
5.280140070035017E+009;-6.408869793892067E+001;3.178272033681071E+001;
5.284142071035518E+009;-6.755404443935716E+001;2.503594617033560E+001;
5.288144072036018E+009;-6.598452710590016E+001;1.580173363756828E+001;
5.292146073036518E+009;-6.456304267928279E+001;8.011205478074780E+000;
5.296148074037019E+009;-6.584343458654337E+001;-4.170010132881751E+000;
5.300150075037519E+009;-6.550125875484739E+001;-9.066690093622468E+000;
5.304152076038019E+009;-6.861714515023598E+001;-1.641981161405452E+001;
5.308154077038519E+009;-6.581683423317053E+001;-2.063813667879360E+001;
5.312156078039020E+009;-6.634283789468383E+001;-2.450452817658407E+001;
5.316158079039520E+009;-6.764576351987077E+001;-4.073824746712333E+001;
5.320160080040020E+009;-6.711271346601751E+001;-5.377590362037127E+001;
5.324162081040521E+009;-6.630774163806821E+001;-4.250094881321165E+001;
5.328164082041020E+009;-6.870278253797119E+001;-3.633945808579652E+001;
5.332166083041521E+009;-6.640677793625682E+001;-5.753840272095130E+001;
5.336168084042021E+009;-6.657324387680687E+001;-5.670008199710006E+001;
5.340170085042522E+009;-6.746460722152365E+001;-7.648698048785002E+001;
5.344172086043021E+009;-6.695606150262616E+001;-8.044305101792385E+001;
5.348174087043522E+009;-6.634504646752056E+001;-8.419452852385108E+001;
5.352176088044022E+009;-6.514456139020790E+001;-9.238251980826045E+001;
5.356178089044522E+009;-6.638147133313288E+001;-9.499799271584523E+001;
5.360180090045023E+009;-6.319637796577589E+001;-1.020220082604085E+002;
5.364182091045523E+009;-6.522336494696748E+001;-1.149573232664912E+002;
5.368184092046023E+009;-6.486074276647700E+001;-1.265686677087674E+002;
5.372186093046523E+009;-6.452047337821364E+001;-1.381320281728005E+002;
5.376188094047024E+009;-6.387463155075087E+001;-1.438456787104967E+002;
5.380190095047524E+009;-6.290793910226039E+001;-1.529358637804138E+002;
5.384192096048024E+009;-6.205292868823138E+001;-1.658551516447736E+002;
5.388194097048524E+009;-6.145545173891698E+001;-1.784146040952645E+002;
5.392196098049025E+009;-6.200792069591896E+001;1.722173198792742E+002;
5.396198099049524E+009;-6.342950884624899E+001;1.596171326354453E+002;
5.400200100050025E+009;-6.309880098236281E+001;1.467293462481391E+002;
5.404202101050526E+009;-6.347412487532763E+001;1.399822922922780E+002;
5.408204102051025E+009;-6.488013111535368E+001;1.195816099271418E+002;
5.412206103051526E+009;-6.336665663180792E+001;1.166729176826834E+002;
5.416208104052026E+009;-6.343254842289901E+001;9.726969045211861E+001;
5.420210105052527E+009;-6.430980354999575E+001;9.945104381756001E+001;
5.424212106053026E+009;-6.513652139206369E+001;9.262001938705470E+001;
5.428214107053527E+009;-6.608984103524711E+001;8.633779793121437E+001;
5.432216108054027E+009;-6.504354106293980E+001;7.377474352437970E+001;
5.436218109054527E+009;-6.448077018242940E+001;6.885758511675408E+001;
5.440220110055028E+009;-6.634125615216101E+001;6.805874572057628E+001;
5.444222111055528E+009;-6.506067112564213E+001;4.645653099516030E+001;
5.448224112056028E+009;-6.524617052257749E+001;5.444632838910571E+001;
5.452226113056528E+009;-6.508338859501394E+001;4.121836353588244E+001;
5.456228114057029E+009;-6.424785301754389E+001;3.380073116982515E+001;
5.460230115057529E+009;-6.554738335061147E+001;2.346668684816428E+001;
5.464232116058029E+009;-6.524695251970749E+001;2.246279848284792E+001;
5.468234117058529E+009;-6.348208790077989E+001;5.854758184028807E+000;
5.472236118059030E+009;-6.522811672734261E+001;-1.333790435601262E+000;
5.476238119059530E+009;-6.317414625754708E+001;-5.485759893097696E+000;
5.480240120060030E+009;-6.424187306439150E+001;-2.982539767949169E+000;
5.484242121060531E+009;-6.467753466733109E+001;-3.015654584788861E+001;
5.488244122061030E+009;-6.398920190202086E+001;-3.357689345168755E+001;
5.492246123061531E+009;-6.413076482472897E+001;-5.115374084880932E+001;
5.496248124062031E+009;-6.349824517101816E+001;-4.761679406678870E+001;
5.500250125062532E+009;-6.281787122641172E+001;-5.401066956911364E+001;
5.504252126063031E+009;-6.286366963138492E+001;-7.138871014298813E+001;
5.508254127063532E+009;-6.534701340932527E+001;-7.700172601562935E+001;
5.512256128064032E+009;-6.526069927152518E+001;-8.142198989632735E+001;
5.516258129064532E+009;-6.400696839211668E+001;-1.037276294326866E+002;
5.520260130065033E+009;-6.310956166529554E+001;-9.917037472707135E+001;
5.524262131065533E+009;-6.466831910405631E+001;-1.122884641643252E+002;
5.528264132066033E+009;-6.372454572397841E+001;-1.223395639235167E+002;
5.532266133066533E+009;-6.379938255721423E+001;-1.273156383239069E+002;
5.536268134067034E+009;-6.340096904052763E+001;-1.384681176402616E+002;
5.540270135067534E+009;-6.314102627757123E+001;-1.441812928845645E+002;
5.544272136068034E+009;-6.511303687547900E+001;-1.462950779487249E+002;
5.548274137068534E+009;-6.320846800784607E+001;-1.612233292999932E+002;
5.552276138069035E+009;-6.402105059411622E+001;-1.612595188637655E+002;
5.556278139069534E+009;-6.289821736344118E+001;-1.727996092966991E+002;
5.560280140070035E+009;-6.268477091748994E+001;-1.799888513200560E+002;
5.564282141070536E+009;-6.326408100391260E+001;1.592515072614152E+002;
5.568284142071035E+009;-6.300812922559570E+001;1.562458450359671E+002;
5.572286143071536E+009;-6.199199252476779E+001;1.493428592092332E+002;
5.576288144072036E+009;-6.212140024270892E+001;1.374775182587571E+002;
5.580290145072537E+009;-6.109642503531799E+001;1.228492917953330E+002;
5.584292146073036E+009;-6.143514483293033E+001;1.188131436023874E+002;
5.588294147073537E+009;-6.134695792315390E+001;1.071401601569821E+002;
5.592296148074038E+009;-6.120768646733345E+001;1.018075246804483E+002;
5.596298149074537E+009;-6.275099202441027E+001;8.443265835461850E+001;
5.600300150075037E+009;-6.192219334308894E+001;7.311202206418780E+001;
5.604302151075538E+009;-6.235767590640359E+001;6.966491219291640E+001;
5.608304152076038E+009;-6.293267824863352E+001;6.007554001666314E+001;
5.612306153076538E+009;-6.386686308296238E+001;4.656774170032255E+001;
5.616308154077039E+009;-6.451951787293284E+001;2.922002606134770E+001;
5.620310155077539E+009;-6.231560114136875E+001;3.199077147696494E+001;
5.624312156078039E+009;-6.401545643846865E+001;1.969422683984881E+001;
5.628314157078539E+009;-6.197072601144462E+001;1.576669265478528E+001;
5.632316158079040E+009;-6.393239011648209E+001;-2.434322100749057E+000;
5.636318159079540E+009;-6.398066548000055E+001;3.476630784995158E+000;
5.640320160080040E+009;-6.544621509707085E+001;-1.382667354142667E+001;
5.644322161080541E+009;-6.506530625323745E+001;-1.516782816943753E+001;
5.648324162081040E+009;-6.417250710936604E+001;-1.267719790340462E+001;
5.652326163081541E+009;-6.354974223875561E+001;-3.356271007216893E+001;
5.656328164082041E+009;-6.559044311420965E+001;-3.136700000522439E+001;
5.660330165082542E+009;-6.378209698186672E+001;-4.900609025712501E+001;
5.664332166083041E+009;-6.359903941050513E+001;-5.077238792593607E+001;
5.668334167083542E+009;-6.435253894102895E+001;-4.698402176242912E+001;
5.672336168084042E+009;-6.448318046567762E+001;-6.562605498740240E+001;
5.676338169084542E+009;-6.349824636773683E+001;-6.640903235812678E+001;
5.680340170085043E+009;-6.306917679730991E+001;-8.111172073199140E+001;
5.684342171085543E+009;-6.321489701735406E+001;-8.224204068633999E+001;
5.688344172086043E+009;-6.280870390533484E+001;-9.072258686415540E+001;
5.692346173086543E+009;-6.169968820830329E+001;-1.043624638240506E+002;
5.696348174087044E+009;-6.199700250356132E+001;-1.177133673569701E+002;
5.700350175087544E+009;-6.150756000888653E+001;-1.188092295362975E+002;
5.704352176088044E+009;-6.146639835935132E+001;-1.356424066549685E+002;
5.708354177088544E+009;-6.165726794741827E+001;-1.437979391560102E+002;
5.712356178089045E+009;-6.076180683893161E+001;-1.498893671399318E+002;
5.716358179089544E+009;-6.068520997882614E+001;-1.634483509077548E+002;
5.720360180090045E+009;-6.020771249830880E+001;-1.729799998183343E+002;
5.724362181090546E+009;-6.014426650272831E+001;1.794730801602687E+002;
5.728364182091045E+009;-5.983796317996493E+001;1.707308339545927E+002;
5.732366183091546E+009;-6.065674675144403E+001;1.559443623690475E+002;
5.736368184092046E+009;-6.059737062604356E+001;1.428561386448653E+002;
5.740370185092547E+009;-6.145977387749304E+001;1.392435276249485E+002;
5.744372186093046E+009;-6.071476041953741E+001;1.357694675431088E+002;
5.748374187093547E+009;-6.056599451886496E+001;1.168441529935863E+002;
5.752376188094048E+009;-6.085169611453068E+001;1.186830005661584E+002;
5.756378189094547E+009;-6.044282031773224E+001;1.023729314785652E+002;
5.760380190095047E+009;-6.110132959287754E+001;9.629491756643327E+001;
5.764382191095548E+009;-6.071764164979421E+001;8.360535051387974E+001;
5.768384192096048E+009;-6.161583405020577E+001;7.099080196815264E+001;
5.772386193096548E+009;-6.112860724456044E+001;6.808875497616570E+001;
5.776388194097049E+009;-6.100361797348527E+001;5.875138192077385E+001;
5.780390195097549E+009;-6.174695640547510E+001;4.867902255951144E+001;
5.784392196098049E+009;-6.180748646410078E+001;4.746582561207866E+001;
5.788394197098549E+009;-6.019943394960215E+001;3.494718903895661E+001;
5.792396198099050E+009;-6.122341463142078E+001;2.185609628658328E+001;
5.796398199099550E+009;-6.129749214555392E+001;9.660954922643743E+000;
5.800400200100050E+009;-6.239634206778448E+001;6.858943091592169E+000;
5.804402201100551E+009;-6.186905527074289E+001;1.227891107986794E+000;
5.808404202101050E+009;-6.203417873878986E+001;-1.032280065898390E+001;
5.812406203101551E+009;-6.289814682619562E+001;-1.779392388932028E+001;
5.816408204102051E+009;-6.453147626821480E+001;-3.023293099959101E+001;
5.820410205102552E+009;-6.188865602389407E+001;-3.059791574939028E+001;
5.824412206103051E+009;-6.299143613849765E+001;-3.035520614957859E+001;
5.828414207103552E+009;-6.370082081384575E+001;-5.109169169849178E+001;
5.832416208104052E+009;-6.141962082161614E+001;-5.243474349377559E+001;
5.836418209104552E+009;-6.219276006936448E+001;-7.034834750422827E+001;
5.840420210105053E+009;-6.130751929976076E+001;-6.576417018220658E+001;
5.844422211105553E+009;-6.295914849158686E+001;-7.101360776961764E+001;
5.848424212106053E+009;-6.230739940491978E+001;-8.489538592934342E+001;
5.852426213106553E+009;-6.183266056852234E+001;-9.210771240690026E+001;
5.856428214107054E+009;-6.243571326929585E+001;-9.371718262940995E+001;
5.860430215107554E+009;-6.094385536307745E+001;-1.014594010716601E+002;
5.864432216108054E+009;-6.019838355507510E+001;-1.122555997497872E+002;
5.868434217108554E+009;-6.123631887404007E+001;-1.240378535007575E+002;
5.872436218109055E+009;-6.040503759693456E+001;-1.358832207724625E+002;
5.876438219109554E+009;-6.066330422363850E+001;-1.399051603993043E+002;
5.880440220110055E+009;-5.964324917704351E+001;-1.530151879192856E+002;
5.884442221110556E+009;-5.832959666888599E+001;-1.574296539885505E+002;
5.888444222111055E+009;-5.871301935030876E+001;-1.759061655698374E+002;
5.892446223111556E+009;-5.881999844770321E+001;-1.791339047546228E+002;
5.896448224112056E+009;-5.877035611950864E+001;1.624938188986495E+002;
5.900450225112557E+009;-5.891285354995978E+001;1.581432878938717E+002;
5.904452226113056E+009;-5.827073348427577E+001;1.418045246721512E+002;
5.908454227113557E+009;-5.951716352552050E+001;1.310314499539510E+002;
5.912456228114058E+009;-5.844160375577688E+001;1.205132330601602E+002;
5.916458229114557E+009;-5.934421329479748E+001;1.112096920837571E+002;
5.920460230115058E+009;-5.936441737388146E+001;1.026307274146030E+002;
5.924462231115558E+009;-5.950902411145685E+001;8.769398005101824E+001;
5.928464232116058E+009;-5.992291989765691E+001;8.362918344482296E+001;
5.932466233116558E+009;-5.943178089058394E+001;7.436614171209995E+001;
5.936468234117059E+009;-6.120010937636916E+001;6.959300561202203E+001;
5.940470235117559E+009;-6.148784970916110E+001;6.047204870052177E+001;
5.944472236118059E+009;-6.155941538219302E+001;5.864031965813838E+001;
5.948474237118559E+009;-6.046571474861864E+001;4.899789548926820E+001;
5.952476238119060E+009;-6.125550159673302E+001;4.000952878826546E+001;
5.956478239119560E+009;-6.154842818561737E+001;3.515919756002470E+001;
5.960480240120060E+009;-6.114207718426568E+001;2.731661120019382E+001;
5.964482241120561E+009;-6.189188334207299E+001;1.848174599322450E+001;
5.968484242121060E+009;-6.123870655405070E+001;7.988660839382708E+000;
5.972486243121561E+009;-6.096150117248126E+001;4.971356784527448E+000;
5.976488244122061E+009;-6.140281544701097E+001;-3.621221072423343E+000;
5.980490245122562E+009;-6.145261993211133E+001;-1.162501184629629E+001;
5.984492246123061E+009;-6.064091819210394E+001;-2.339937165743710E+001;
5.988494247123562E+009;-6.129299222652271E+001;-2.689114604426421E+001;
5.992496248124062E+009;-6.110234863952756E+001;-3.605449088619598E+001;
5.996498249124562E+009;-6.110869376829137E+001;-4.526875954373384E+001;
6.000500250125063E+009;-6.117987258908782E+001;-5.221202257164634E+001;
6.004502251125563E+009;-5.985299187691030E+001;-6.434144022860816E+001;
6.008504252126063E+009;-6.060265654657878E+001;-7.008144062590608E+001;
6.012506253126563E+009;-5.997188199175390E+001;-7.864569451947257E+001;
6.016508254127064E+009;-5.910010254611798E+001;-9.013546574228332E+001;
6.020510255127564E+009;-5.917731756627313E+001;-9.576791945453839E+001;
6.024512256128064E+009;-5.924825938769718E+001;-1.073344583361872E+002;
6.028514257128564E+009;-5.888621479285898E+001;-1.168270469189298E+002;
6.032516258129065E+009;-5.912092156117271E+001;-1.254826176433372E+002;
6.036518259129564E+009;-5.880479800222364E+001;-1.330744365826828E+002;
6.040520260130065E+009;-5.822401902238548E+001;-1.402907907355841E+002;
6.044522261130566E+009;-5.860842439655382E+001;-1.477489443354679E+002;
6.048524262131065E+009;-5.870345151745030E+001;-1.575332938558089E+002;
6.052526263131566E+009;-5.775596694498405E+001;-1.689092658294536E+002;
6.056528264132066E+009;-5.806238148646938E+001;-1.730153717314262E+002;
6.060530265132567E+009;-5.809057220366876E+001;1.733081698846810E+002;
6.064532266133066E+009;-5.762837734445142E+001;1.673663812399215E+002;
6.068534267133567E+009;-5.747165554038664E+001;1.516985136101305E+002;
6.072536268134068E+009;-5.698094354880309E+001;1.455889255839224E+002;
6.076538269134567E+009;-5.754858255767643E+001;1.347973827525218E+002;
6.080540270135067E+009;-5.655083011182035E+001;1.203050938680410E+002;
6.084542271135568E+009;-5.738688795690874E+001;1.107321967572321E+002;
6.088544272136068E+009;-5.755795862362757E+001;1.014503840483169E+002;
6.092546273136568E+009;-5.735616919271996E+001;9.386683843026107E+001;
6.096548274137069E+009;-5.763600319328926E+001;8.018152463114733E+001;
6.100550275137569E+009;-5.804573662173166E+001;6.696527750220361E+001;
6.104552276138069E+009;-5.859182217293169E+001;5.736729260154748E+001;
6.108554277138569E+009;-5.822094997773522E+001;4.761989146867330E+001;
6.112556278139070E+009;-5.915125990269892E+001;4.677141098894895E+001;
