freq[Hz];re:Trc1_S22;im:Trc1_S22;
6.600000000000000E+009;7.911437153816223E-001;2.302991571941177E-001;
6.601000500250125E+009;7.995115518569946E-001;1.993914974749966E-001;
6.602001000500250E+009;8.134306669235230E-001;1.771917101768854E-001;
6.603001500750375E+009;8.177161812782288E-001;1.475766722514655E-001;
6.604002001000501E+009;8.206168413162231E-001;1.210847020804998E-001;
6.605002501250626E+009;8.286454081535339E-001;9.544468434699062E-002;
6.606003001500751E+009;8.334787487983704E-001;6.923932318016901E-002;
6.607003501750876E+009;8.343809247016907E-001;4.249199895302309E-002;
6.608004002001000E+009;8.384178876876831E-001;1.493616387809270E-002;
6.609004502251125E+009;8.389676809310913E-001;-1.324476528912773E-002;
6.610005002501250E+009;8.414555788040161E-001;-3.910392543440888E-002;
6.611005502751376E+009;8.407273292541504E-001;-6.395710024357024E-002;
6.612006003001501E+009;8.363862633705139E-001;-8.988798084976231E-002;
6.613006503251626E+009;8.394537568092346E-001;-1.170067650233400E-001;
6.614007003501751E+009;8.323225975036621E-001;-1.412360488996785E-001;
6.615007503751876E+009;8.302183747291565E-001;-1.660168629285905E-001;
6.616008004002001E+009;8.275622725486755E-001;-1.932055303846239E-001;
6.617008504252126E+009;8.243187069892883E-001;-2.159377655066592E-001;
6.618009004502251E+009;8.158622980117798E-001;-2.379468902878538E-001;
6.619009504752377E+009;8.083013892173767E-001;-2.656354133268081E-001;
6.620010005002502E+009;8.001526594161987E-001;-2.880543495770520E-001;
6.621010505252626E+009;7.955213785171509E-001;-3.103221944537777E-001;
6.622011005502751E+009;7.865729928016663E-001;-3.345432407782956E-001;
6.623011505752876E+009;7.786998748779297E-001;-3.602796525751714E-001;
6.624012006003001E+009;7.676526904106140E-001;-3.784265736506566E-001;
6.625012506253126E+009;7.538474202156067E-001;-4.056424641927318E-001;
6.626013006503252E+009;7.464752197265625E-001;-4.273890485723281E-001;
6.627013506753377E+009;7.394298315048218E-001;-4.475612221208272E-001;
6.628014007003502E+009;7.274940013885498E-001;-4.668650927489342E-001;
6.629014507253627E+009;7.125118970870972E-001;-4.899966747997093E-001;
6.630015007503752E+009;6.983891725540161E-001;-5.099836922942849E-001;
6.631015507753877E+009;6.827951669692993E-001;-5.299144269937816E-001;
6.632016008004002E+009;6.713767647743225E-001;-5.467796995399731E-001;
6.633016508254128E+009;6.568635702133179E-001;-5.668448731766681E-001;
6.634017008504252E+009;6.457648873329163E-001;-5.829524661950898E-001;
6.635017508754377E+009;6.234824061393738E-001;-6.037252592023275E-001;
6.636018009004502E+009;6.083871126174927E-001;-6.236728482954843E-001;
6.637018509254627E+009;5.898248553276062E-001;-6.386607103851435E-001;
6.638019009504752E+009;5.695246458053589E-001;-6.550902309425395E-001;
6.639019509754877E+009;5.591359138488770E-001;-6.699936760420490E-001;
6.640020010005003E+009;5.379706621170044E-001;-6.864720539664839E-001;
6.641020510255128E+009;5.209677815437317E-001;-7.042830929815478E-001;
6.642021010505253E+009;5.003817677497864E-001;-7.172701677711169E-001;
6.643021510755378E+009;4.754486680030823E-001;-7.276852434961306E-001;
6.644022011005503E+009;4.592736959457398E-001;-7.442357050420011E-001;
6.645022511255628E+009;4.417879879474640E-001;-7.619761896054267E-001;
6.646023011505753E+009;4.158365726470947E-001;-7.693735476461300E-001;
6.647023511755878E+009;3.953378200531006E-001;-7.779508984179383E-001;
6.648024012006003E+009;3.726370930671692E-001;-7.907903302127287E-001;
6.649024512256128E+009;3.510377407073975E-001;-8.003539743077059E-001;
6.650025012506253E+009;3.259468972682953E-001;-8.140736282778827E-001;
6.651025512756378E+009;3.025760054588318E-001;-8.199999690425804E-001;
6.652026013006503E+009;2.816931307315826E-001;-8.272853144047678E-001;
6.653026513256628E+009;2.544861733913422E-001;-8.402432744533008E-001;
6.654027013506753E+009;2.307779192924500E-001;-8.431633782393877E-001;
6.655027513756879E+009;2.109942287206650E-001;-8.521219471011846E-001;
6.656028014007004E+009;1.824714541435242E-001;-8.543309230199588E-001;
6.657028514257129E+009;1.567617207765579E-001;-8.572026629959459E-001;
6.658029014507254E+009;1.331231743097305E-001;-8.661832895622958E-001;
6.659029514757379E+009;1.043651700019836E-001;-8.615542598216618E-001;
6.660030015007504E+009;7.442969828844070E-002;-8.687449970165406E-001;
6.661030515257628E+009;5.228093266487122E-002;-8.662151014582634E-001;
6.662031015507754E+009;2.592422813177109E-002;-8.691355742160427E-001;
6.663031515757879E+009;-2.257749438285828E-003;-8.698486229929198E-001;
6.664032016008004E+009;-2.944475971162319E-002;-8.686249027313820E-001;
6.665032516258129E+009;-5.360332876443863E-002;-8.696711437878201E-001;
6.666033016508254E+009;-8.208740502595902E-002;-8.665967191145336E-001;
6.667033516758379E+009;-1.124481186270714E-001;-8.685143550238524E-001;
6.668034017008504E+009;-1.379293799400330E-001;-8.609668595567420E-001;
6.669034517258629E+009;-1.670486330986023E-001;-8.513329310920358E-001;
6.670035017508755E+009;-1.928677260875702E-001;-8.452140796085412E-001;
6.671035517758880E+009;-2.182091623544693E-001;-8.413653305368894E-001;
6.672036018009005E+009;-2.486816495656967E-001;-8.292023189199890E-001;
6.673036518259130E+009;-2.708963453769684E-001;-8.249843888205738E-001;
6.674037018509255E+009;-3.026029765605927E-001;-8.083045501564748E-001;
6.675037518759379E+009;-3.296072483062744E-001;-8.043810861658975E-001;
6.676038019009504E+009;-3.554375767707825E-001;-7.874248817962144E-001;
6.677038519259630E+009;-3.876551687717438E-001;-7.777053397142483E-001;
6.678039019509755E+009;-4.124668538570404E-001;-7.569077718117231E-001;
6.679039519759880E+009;-4.370364248752594E-001;-7.406092582492470E-001;
6.680040020010005E+009;-4.606547653675079E-001;-7.236877910211957E-001;
6.681040520260130E+009;-4.909069240093231E-001;-7.029273047496072E-001;
6.682041020510255E+009;-5.168337225914002E-001;-6.875488770911962E-001;
6.683041520760380E+009;-5.381658077239990E-001;-6.616459555749841E-001;
6.684042021010506E+009;-5.576122403144836E-001;-6.395730050288956E-001;
6.685042521260631E+009;-5.804476141929627E-001;-6.206652161653670E-001;
6.686043021510756E+009;-6.001674532890320E-001;-5.917328360292756E-001;
6.687043521760881E+009;-6.247016787528992E-001;-5.702831256136158E-001;
6.688044022011005E+009;-6.491972804069519E-001;-5.441083518629551E-001;
6.689044522261130E+009;-6.663076877593994E-001;-5.100847266409341E-001;
6.690045022511255E+009;-6.898947954177856E-001;-4.840472304692516E-001;
6.691045522761381E+009;-7.061032056808472E-001;-4.545417125529739E-001;
6.692046023011506E+009;-7.216585278511047E-001;-4.229374815228046E-001;
6.693046523261631E+009;-7.388722896575928E-001;-3.887509776900467E-001;
6.694047023511756E+009;-7.559443712234497E-001;-3.587570832648701E-001;
6.695047523761881E+009;-7.627245187759399E-001;-3.219676900844903E-001;
6.696048024012006E+009;-7.718679308891296E-001;-2.856483974957067E-001;
6.697048524262131E+009;-7.859020829200745E-001;-2.525183040168764E-001;
6.698049024512256E+009;-7.953603267669678E-001;-2.138683524400308E-001;
6.699049524762382E+009;-8.027561902999878E-001;-1.745048708921788E-001;
6.700050025012507E+009;-8.039501309394836E-001;-1.376390831328390E-001;
6.701050525262631E+009;-8.102722167968750E-001;-9.845651051271932E-002;
6.702051025512756E+009;-8.112584352493286E-001;-5.962759958280377E-002;
6.703051525762881E+009;-8.140947818756104E-001;-2.286698708940058E-002;
6.704052026013006E+009;-8.080723285675049E-001;1.873863277100724E-002;
6.705052526263131E+009;-8.052055835723877E-001;6.291293351785826E-002;
6.706053026513257E+009;-7.971993088722229E-001;1.052523554490592E-001;
6.707053526763382E+009;-7.899743914604187E-001;1.432735652739651E-001;
6.708054027013507E+009;-7.810542583465576E-001;1.830591836332385E-001;
6.709054527263632E+009;-7.674168944358826E-001;2.210904588046096E-001;
6.710055027513757E+009;-7.533056735992432E-001;2.567444175507150E-001;
6.711055527763882E+009;-7.365643978118897E-001;3.025324482432114E-001;
6.712056028014007E+009;-7.143694162368774E-001;3.343937541574761E-001;
6.713056528264133E+009;-6.968055963516235E-001;3.756255942145003E-001;
6.714057028514257E+009;-6.714748144149780E-001;4.072482975864012E-001;
6.715057528764382E+009;-6.497491598129273E-001;4.444980663662870E-001;
6.716058029014507E+009;-6.238946914672852E-001;4.797898892178611E-001;
6.717058529264632E+009;-5.907762050628662E-001;5.119975727497940E-001;
6.718059029514757E+009;-5.645961761474609E-001;5.387959356133186E-001;
6.719059529764882E+009;-5.315132737159729E-001;5.756905225664318E-001;
6.720060030015008E+009;-4.966350495815277E-001;5.989094251296582E-001;
6.721060530265133E+009;-4.663410186767578E-001;6.258496375997087E-001;
6.722061030515258E+009;-4.262074232101440E-001;6.507457847406528E-001;
6.723061530765383E+009;-3.875586986541748E-001;6.702531844584705E-001;
6.724062031015508E+009;-3.521858453750610E-001;6.914797872241301E-001;
6.725062531265633E+009;-3.146634101867676E-001;7.072710272006810E-001;
6.726063031515758E+009;-2.739358246326447E-001;7.258754404695419E-001;
6.727063531765883E+009;-2.321829497814179E-001;7.389547031900456E-001;
6.728064032016008E+009;-1.892442107200623E-001;7.511181598642412E-001;
6.729064532266133E+009;-1.464467048645020E-001;7.583141478053600E-001;
6.730065032516258E+009;-1.066735312342644E-001;7.652930779090038E-001;
6.731065532766383E+009;-6.324195116758347E-002;7.701282846820453E-001;
6.732066033016508E+009;-2.413387782871723E-002;7.724935828004542E-001;
6.733066533266633E+009;1.736493036150932E-002;7.725350416524139E-001;
6.734067033516758E+009;6.175444275140762E-002;7.737833073037219E-001;
6.735067533766884E+009;1.037688851356506E-001;7.661826217384905E-001;
6.736068034017009E+009;1.406337320804596E-001;7.636004254668838E-001;
6.737068534267134E+009;1.771872937679291E-001;7.558287710314194E-001;
6.738069034517259E+009;2.240958958864212E-001;7.429453748564959E-001;
6.739069534767384E+009;2.574537098407745E-001;7.312936361602420E-001;
6.740070035017509E+009;2.928599119186401E-001;7.208498926359384E-001;
6.741070535267633E+009;3.305615186691284E-001;7.071419083540141E-001;
6.742071035517759E+009;3.669244050979614E-001;6.933444295927331E-001;
6.743071535767884E+009;3.985863327980042E-001;6.731006379226903E-001;
6.744072036018009E+009;4.329510927200317E-001;6.561138330459886E-001;
6.745072536268134E+009;4.606441259384155E-001;6.342931433254138E-001;
6.746073036518259E+009;4.953555762767792E-001;6.140150365623376E-001;
6.747073536768384E+009;5.223097801208496E-001;5.889233132190984E-001;
6.748074037018509E+009;5.516943335533142E-001;5.674728750270524E-001;
6.749074537268635E+009;5.743618607521057E-001;5.421117136990539E-001;
6.750075037518760E+009;6.014307737350464E-001;5.143315914797618E-001;
6.751075537768885E+009;6.211388111114502E-001;4.934400389522328E-001;
6.752076038019010E+009;6.466488838195801E-001;4.686349698973394E-001;
6.753076538269135E+009;6.675638556480408E-001;4.386247405118041E-001;
6.754077038519260E+009;6.867862343788147E-001;4.100409705799289E-001;
6.755077538769384E+009;7.039662003517151E-001;3.854131043952666E-001;
6.756078039019509E+009;7.175683975219727E-001;3.574540512612526E-001;
6.757078539269635E+009;7.370796203613281E-001;3.285002974859880E-001;
6.758079039519760E+009;7.491486668586731E-001;2.990103744298315E-001;
6.759079539769885E+009;7.635721564292908E-001;2.724898306641869E-001;
6.760080040020010E+009;7.755724191665649E-001;2.437701226151088E-001;
6.761080540270135E+009;7.814875841140747E-001;2.130771612402422E-001;
6.762081040520260E+009;7.928684949874878E-001;1.840855429190002E-001;
6.763081540770385E+009;8.024535775184631E-001;1.548213294614034E-001;
6.764082041020511E+009;8.067175149917603E-001;1.266494463456827E-001;
6.765082541270636E+009;8.113638758659363E-001;9.770354555239005E-002;
6.766083041520761E+009;8.155047297477722E-001;6.641939215126116E-002;
6.767083541770886E+009;8.196248412132263E-001;4.241165872333493E-002;
6.768084042021010E+009;8.211885094642639E-001;1.184458293665769E-002;
6.769084542271135E+009;8.229235410690308E-001;-2.082145608389509E-002;
6.770085042521260E+009;8.256318569183350E-001;-4.266639393462738E-002;
6.771085542771386E+009;8.250108361244202E-001;-7.325244148320731E-002;
6.772086043021511E+009;8.224446773529053E-001;-9.905000414749225E-002;
6.773086543271636E+009;8.226115107536316E-001;-1.309172263567431E-001;
6.774087043521761E+009;8.191499114036560E-001;-1.528326432256922E-001;
6.775087543771886E+009;8.148792386054993E-001;-1.770726856062148E-001;
6.776088044022011E+009;8.138831257820129E-001;-2.071356408350540E-001;
6.777088544272136E+009;8.041320443153381E-001;-2.305882507743281E-001;
6.778089044522261E+009;8.006916642189026E-001;-2.498592275018707E-001;
6.779089544772387E+009;7.902945280075073E-001;-2.786425750200965E-001;
6.780090045022512E+009;7.865016460418701E-001;-3.024689668937318E-001;
6.781090545272636E+009;7.796691060066223E-001;-3.295548145736450E-001;
6.782091045522761E+009;7.665746808052063E-001;-3.471812454646077E-001;
6.783091545772886E+009;7.589709758758545E-001;-3.726515175727156E-001;
6.784092046023011E+009;7.487859129905701E-001;-3.967258947199128E-001;
6.785092546273136E+009;7.366191744804382E-001;-4.224206338129332E-001;
6.786093046523262E+009;7.275803089141846E-001;-4.378113866066543E-001;
6.787093546773387E+009;7.157800793647766E-001;-4.630128626361266E-001;
6.788094047023512E+009;6.997628211975098E-001;-4.813066711077085E-001;
6.789094547273637E+009;6.858928799629211E-001;-5.026366413591741E-001;
6.790095047523762E+009;6.707215905189514E-001;-5.257661556995802E-001;
6.791095547773887E+009;6.600031852722168E-001;-5.398808576847000E-001;
6.792096048024012E+009;6.462811827659607E-001;-5.585355938011977E-001;
6.793096548274138E+009;6.313973665237427E-001;-5.789186004983468E-001;
6.794097048524262E+009;6.156388521194458E-001;-5.950488190262396E-001;
6.795097548774387E+009;5.991768836975098E-001;-6.143696672474818E-001;
6.796098049024512E+009;5.837725400924683E-001;-6.275551469515203E-001;
6.797098549274637E+009;5.665271878242493E-001;-6.452190729660832E-001;
6.798099049524762E+009;5.498144626617432E-001;-6.599352153991007E-001;
6.799099549774887E+009;5.354924798011780E-001;-6.787561188924758E-001;
6.800100050025013E+009;5.130972266197205E-001;-6.907116939890198E-001;
6.801100550275138E+009;4.986930191516876E-001;-7.029039364588786E-001;
6.802101050525263E+009;4.752729237079620E-001;-7.214099050007754E-001;
6.803101550775388E+009;4.581971168518066E-001;-7.327681603226447E-001;
6.804102051025513E+009;4.394254088401794E-001;-7.470099710000503E-001;
6.805102551275638E+009;4.197044074535370E-001;-7.552836983505009E-001;
6.806103051525763E+009;4.005205035209656E-001;-7.661017580388764E-001;
6.807103551775888E+009;3.788511455059052E-001;-7.781574752124110E-001;
6.808104052026013E+009;3.612940907478333E-001;-7.892048776854459E-001;
6.809104552276138E+009;3.380006551742554E-001;-7.981832312800805E-001;
6.810105052526263E+009;3.136912584304810E-001;-8.080452831878079E-001;
6.811105552776388E+009;2.945769131183624E-001;-8.177658966088092E-001;
6.812106053026513E+009;2.715269625186920E-001;-8.290152518756468E-001;
6.813106553276638E+009;2.519406080245972E-001;-8.323837399497629E-001;
6.814107053526763E+009;2.250477224588394E-001;-8.399912904679339E-001;
6.815107553776889E+009;2.028104811906815E-001;-8.432420684586736E-001;
6.816108054027014E+009;1.820588111877441E-001;-8.543446444642084E-001;
6.817108554277139E+009;1.561036854982376E-001;-8.555048538162425E-001;
6.818109054527264E+009;1.335372030735016E-001;-8.599645561717841E-001;
6.819109554777389E+009;1.102359369397163E-001;-8.639761004274857E-001;
6.820110055027514E+009;8.470574021339417E-002;-8.688753893713819E-001;
6.821110555277638E+009;5.955283716320992E-002;-8.702133068152683E-001;
6.822111055527764E+009;3.668896853923798E-002;-8.702966182979279E-001;
6.823111555777889E+009;1.285322941839695E-002;-8.728862040075212E-001;
6.824112056028014E+009;-1.014922186732292E-002;-8.694471526613493E-001;
6.825112556278139E+009;-3.760955110192299E-002;-8.703103701767212E-001;
6.826113056528264E+009;-6.398177891969681E-002;-8.708246739821999E-001;
6.827113556778389E+009;-8.751706779003143E-002;-8.667229600987249E-001;
6.828114057028514E+009;-1.128617897629738E-001;-8.679971387350524E-001;
6.829114557278639E+009;-1.368731856346130E-001;-8.619115466511456E-001;
6.830115057528765E+009;-1.629284322261810E-001;-8.535071261223561E-001;
6.831115557778890E+009;-1.902956813573837E-001;-8.505683653011716E-001;
6.832116058029015E+009;-2.147724181413651E-001;-8.430997494627611E-001;
6.833116558279140E+009;-2.391484826803207E-001;-8.359896147577375E-001;
6.834117058529265E+009;-2.671767175197601E-001;-8.287134794282421E-001;
6.835117558779389E+009;-2.943091392517090E-001;-8.202025351218517E-001;
6.836118059029514E+009;-3.168744444847107E-001;-8.100622997578767E-001;
6.837118559279640E+009;-3.462239205837250E-001;-7.993261153434660E-001;
6.838119059529765E+009;-3.680638968944550E-001;-7.881151541981351E-001;
6.839119559779890E+009;-3.939404785633087E-001;-7.731769276101946E-001;
6.840120060030015E+009;-4.191221892833710E-001;-7.577138717565417E-001;
6.841120560280140E+009;-4.478160738945007E-001;-7.468474566752879E-001;
6.842121060530265E+009;-4.686726927757263E-001;-7.276926654627829E-001;
6.843121560780390E+009;-4.936845600605011E-001;-7.084341763013641E-001;
6.844122061030516E+009;-5.175915956497192E-001;-6.916272486479786E-001;
6.845122561280641E+009;-5.414546132087708E-001;-6.707140700319542E-001;
6.846123061530766E+009;-5.648617744445801E-001;-6.516748068394249E-001;
6.847123561780891E+009;-5.874578952789307E-001;-6.323337754500796E-001;
6.848124062031015E+009;-6.100195050239563E-001;-6.055474657687185E-001;
6.849124562281140E+009;-6.319737434387207E-001;-5.820084436580075E-001;
6.850125062531265E+009;-6.508244872093201E-001;-5.551986188854060E-001;
6.851125562781391E+009;-6.716223955154419E-001;-5.301659608981629E-001;
6.852126063031516E+009;-6.922338008880615E-001;-5.016856602861436E-001;
6.853126563281641E+009;-7.075850367546082E-001;-4.748645667263000E-001;
6.854127063531766E+009;-7.234429717063904E-001;-4.437150907592062E-001;
6.855127563781891E+009;-7.408301234245300E-001;-4.124552465806261E-001;
6.856128064032016E+009;-7.552838325500488E-001;-3.849149879542992E-001;
6.857128564282141E+009;-7.722692489624023E-001;-3.508909225107412E-001;
6.858129064532267E+009;-7.825765609741211E-001;-3.144244605679432E-001;
6.859129564782392E+009;-7.896338701248169E-001;-2.790448827202647E-001;
6.860130065032517E+009;-8.021569848060608E-001;-2.428131470895828E-001;
6.861130565282641E+009;-8.103882074356079E-001;-2.054371660209867E-001;
6.862131065532766E+009;-8.147664070129395E-001;-1.687439474625559E-001;
6.863131565782891E+009;-8.193691372871399E-001;-1.309610655601903E-001;
6.864132066033016E+009;-8.218418955802918E-001;-9.198607844256930E-002;
6.865132566283141E+009;-8.225024342536926E-001;-4.859772598280644E-002;
6.866133066533267E+009;-8.214811086654663E-001;-1.360443462614925E-002;
6.867133566783392E+009;-8.213565349578857E-001;2.801557368701396E-002;
6.868134067033517E+009;-8.158845901489258E-001;6.524317516528769E-002;
6.869134567283642E+009;-8.076795935630798E-001;1.076273405431866E-001;
6.870135067533767E+009;-7.965818047523499E-001;1.479931255077436E-001;
6.871135567783892E+009;-7.897968292236328E-001;1.864386411188524E-001;
6.872136068034017E+009;-7.757362723350525E-001;2.317308429551295E-001;
6.873136568284143E+009;-7.595657706260681E-001;2.711198413094005E-001;
6.874137068534267E+009;-7.416721582412720E-001;3.040245900179218E-001;
6.875137568784392E+009;-7.238512039184570E-001;3.430573585476373E-001;
6.876138069034517E+009;-6.995146274566650E-001;3.820176597380036E-001;
6.877138569284642E+009;-6.781794428825378E-001;4.218910769273918E-001;
6.878139069534767E+009;-6.515920162200928E-001;4.471783886736501E-001;
6.879139569784892E+009;-6.213763356208801E-001;4.846204672163013E-001;
