freq[Hz];db:Trc1_S22;ang:Trc1_S22;
5.000000000000000E+009;-1.272965728226931E+000;1.198237539331575E+001;
5.004002001000501E+009;-1.218056137501810E+000;5.052914910284149E+000;
5.008004002001000E+009;-1.241896966293747E+000;-2.567167876125261E+000;
5.012006003001501E+009;-1.210275326133199E+000;-1.048407862446998E+001;
5.016008004002001E+009;-1.190000661524957E+000;-1.834750573177327E+001;
5.020010005002502E+009;-1.255172281887079E+000;-2.616776570480334E+001;
5.024012006003001E+009;-1.185477953853075E+000;-3.408950143783510E+001;
5.028014007003502E+009;-1.260398801601822E+000;-4.315614254635931E+001;
5.032016008004002E+009;-1.243383584685111E+000;-5.249163572820864E+001;
5.036018009004502E+009;-1.223563441612888E+000;-6.225323097807360E+001;
5.040020010005003E+009;-1.366653653846913E+000;-7.293712851080238E+001;
5.044022011005503E+009;-1.360471737350388E+000;-8.296654200148130E+001;
5.048024012006003E+009;-1.392657049446053E+000;-9.429571637761328E+001;
5.052026013006503E+009;-1.439746218100061E+000;-1.056118685850124E+002;
5.056028014007004E+009;-1.545958408613257E+000;-1.165418024179847E+002;
5.060030015007504E+009;-1.605870657364795E+000;-1.289712594997140E+002;
5.064032016008004E+009;-1.632799352245421E+000;-1.410433091285673E+002;
5.068034017008504E+009;-1.802163040450106E+000;-1.530302115400654E+002;
5.072036018009005E+009;-1.796957414891980E+000;-1.645362294373977E+002;
5.076038019009504E+009;-1.819868834349102E+000;-1.765040308808148E+002;
5.080040020010005E+009;-1.886387489423626E+000;1.723191957246582E+002;
5.084042021010506E+009;-1.852422417480326E+000;1.615537464262264E+002;
5.088044022011005E+009;-1.889979395345158E+000;1.502131134660283E+002;
5.092046023011506E+009;-1.827549439267414E+000;1.408918591036257E+002;
5.096048024012006E+009;-1.849197417402283E+000;1.310225702787075E+002;
5.100050025012507E+009;-1.720295911120896E+000;1.217724807229959E+002;
5.104052026013006E+009;-1.779161400942831E+000;1.125034300447624E+002;
5.108054027013507E+009;-1.666819677339759E+000;1.041229540429341E+002;
5.112056028014007E+009;-1.541493665822646E+000;9.594778631854528E+001;
5.116058029014507E+009;-1.410150879738500E+000;8.833016727625706E+001;
5.120060030015008E+009;-1.384329862806635E+000;8.165388801687219E+001;
5.124062031015508E+009;-1.337366408136055E+000;7.409327407092448E+001;
5.128064032016008E+009;-1.255359452183646E+000;6.731410491933981E+001;
5.132066033016508E+009;-1.227651706466867E+000;6.028009636690523E+001;
5.136068034017009E+009;-1.205058142345488E+000;5.345684436171757E+001;
5.140070035017509E+009;-1.158326177483885E+000;4.714855545660281E+001;
5.144072036018009E+009;-1.145995671154840E+000;4.082623937609044E+001;
5.148074037018509E+009;-1.107194830736894E+000;3.381071530407029E+001;
5.152076038019010E+009;-1.048238263358931E+000;2.717892313183064E+001;
5.156078039019509E+009;-1.040198699830176E+000;2.030507140825345E+001;
5.160080040020010E+009;-1.059563317338811E+000;1.372883554901603E+001;
5.164082041020511E+009;-1.045424843345083E+000;6.878759332806696E+000;
5.168084042021010E+009;-1.091655524739696E+000;-4.115065754589244E-001;
5.172086043021511E+009;-1.091168843789306E+000;-7.716363714779567E+000;
5.176088044022011E+009;-1.086123745478575E+000;-1.492884495380053E+001;
5.180090045022512E+009;-1.161242293020262E+000;-2.291082189566588E+001;
5.184092046023011E+009;-1.156499888938657E+000;-3.097688101584130E+001;
5.188094047023512E+009;-1.292087332073233E+000;-3.920981770693031E+001;
5.192096048024012E+009;-1.314181555593251E+000;-4.832743528214596E+001;
5.196098049024512E+009;-1.405118302498755E+000;-5.759645404594557E+001;
5.200100050025013E+009;-1.557329814056220E+000;-6.752104384750314E+001;
5.204102051025513E+009;-1.599037730417801E+000;-7.743074279729136E+001;
5.208104052026013E+009;-1.734051326439256E+000;-8.855392200856807E+001;
5.212106053026513E+009;-1.782970746213315E+000;-1.000137397495490E+002;
5.216108054027014E+009;-1.857732578655743E+000;-1.110155747805687E+002;
5.220110055027514E+009;-1.953315442004331E+000;-1.232045505007235E+002;
5.224112056028014E+009;-1.928555052965356E+000;-1.351901451014440E+002;
5.228114057028514E+009;-2.059867473285374E+000;-1.469150252010391E+002;
5.232116058029015E+009;-1.978001153487910E+000;-1.587263507977426E+002;
5.236118059029514E+009;-1.913296110858467E+000;-1.709487411935371E+002;
5.240120060030015E+009;-1.897736824905866E+000;1.772566978574983E+002;
5.244122061030516E+009;-1.882639128456899E+000;1.660779592327690E+002;
5.248124062031015E+009;-1.781644768758633E+000;1.551457637387097E+002;
5.252126063031516E+009;-1.733595659542996E+000;1.442544448580935E+002;
5.256128064032016E+009;-1.640146518702270E+000;1.340479166440996E+002;
5.260130065032517E+009;-1.566540465300310E+000;1.244666167870720E+002;
5.264132066033016E+009;-1.484767863657604E+000;1.154652429745349E+002;
5.268134067033517E+009;-1.447404847185437E+000;1.064705341063558E+002;
5.272136068034017E+009;-1.393415871894934E+000;9.789750152916439E+001;
5.276138069034517E+009;-1.321531909203705E+000;8.977740114550080E+001;
5.280140070035017E+009;-1.286386789575388E+000;8.204587622326726E+001;
5.284142071035518E+009;-1.312947596732778E+000;7.452467647395673E+001;
5.288144072036018E+009;-1.240181665066318E+000;6.721825740568278E+001;
5.292146073036518E+009;-1.258006022388844E+000;6.028383176808917E+001;
5.296148074037019E+009;-1.254521848342526E+000;5.332252803110514E+001;
5.300150075037519E+009;-1.253810975584062E+000;4.652974612049874E+001;
5.304152076038019E+009;-1.308326181538970E+000;3.972061879339116E+001;
5.308154077038519E+009;-1.215145182855707E+000;3.352759345924357E+001;
5.312156078039020E+009;-1.298530089671215E+000;2.650385427979190E+001;
5.316158079039520E+009;-1.318278187382076E+000;1.983205441248886E+001;
5.320160080040020E+009;-1.330413704362066E+000;1.333675210941956E+001;
5.324162081040521E+009;-1.333191797442044E+000;6.437975501574555E+000;
5.328164082041020E+009;-1.293928603886866E+000;-1.517903150502417E-001;
5.332166083041521E+009;-1.367617766291412E+000;-7.212283237966403E+000;
5.336168084042021E+009;-1.366281997290023E+000;-1.428804581046785E+001;
5.340170085042522E+009;-1.403221834121472E+000;-2.161995839952573E+001;
5.344172086043021E+009;-1.408872980560839E+000;-2.912755621121761E+001;
5.348174087043522E+009;-1.439583170644462E+000;-3.706155140195592E+001;
5.352176088044022E+009;-1.436965795843113E+000;-4.517985215894769E+001;
5.356178089044522E+009;-1.448862146815622E+000;-5.389346100190774E+001;
5.360180090045023E+009;-1.508656539450062E+000;-6.267652278028737E+001;
5.364182091045523E+009;-1.491035757484063E+000;-7.258074566155929E+001;
5.368184092046023E+009;-1.526985053662772E+000;-8.239776977511700E+001;
5.372186093046523E+009;-1.564944222552709E+000;-9.248822575616885E+001;
5.376188094047024E+009;-1.610455027904378E+000;-1.033808012327953E+002;
5.380190095047524E+009;-1.590779202068099E+000;-1.143930832718755E+002;
5.384192096048024E+009;-1.630536129956391E+000;-1.262868104076232E+002;
5.388194097048524E+009;-1.669507608180098E+000;-1.381921581037897E+002;
5.392196098049025E+009;-1.687275417669397E+000;-1.501484236960904E+002;
5.396198099049524E+009;-1.731280391794298E+000;-1.624249338467990E+002;
5.400200100050025E+009;-1.732546502230153E+000;-1.745086534677635E+002;
5.404202101050526E+009;-1.773914458883713E+000;1.736961758616987E+002;
5.408204102051025E+009;-1.752653658940194E+000;1.619981497856066E+002;
5.412206103051526E+009;-1.791739081319428E+000;1.506712577978030E+002;
5.416208104052026E+009;-1.777700214769006E+000;1.392264436780384E+002;
5.420210105052527E+009;-1.795230171209422E+000;1.290084451765701E+002;
5.424212106053026E+009;-1.775650920716708E+000;1.188917162853904E+002;
5.428214107053527E+009;-1.765292492808942E+000;1.092584130107081E+002;
5.432216108054027E+009;-1.771562270188727E+000;1.003762969460690E+002;
5.436218109054527E+009;-1.679091972147881E+000;9.136588600631612E+001;
5.440220110055028E+009;-1.699545256425322E+000;8.347266110703293E+001;
5.444222111055528E+009;-1.646989511927218E+000;7.550407331328547E+001;
5.448224112056028E+009;-1.603406043212080E+000;6.793223222521755E+001;
5.452226113056528E+009;-1.561359574679681E+000;6.039357957557323E+001;
5.456228114057029E+009;-1.578760038285322E+000;5.346305832952307E+001;
5.460230115057529E+009;-1.496814346518407E+000;4.642920764128410E+001;
5.464232116058029E+009;-1.450690690288023E+000;3.978815385688963E+001;
5.468234117058529E+009;-1.407639217077606E+000;3.299203789545865E+001;
5.472236118059030E+009;-1.344297009045927E+000;2.626023833781535E+001;
5.476238119059530E+009;-1.311485305487889E+000;2.010134531846227E+001;
5.480240120060030E+009;-1.240996730935957E+000;1.342024170152114E+001;
5.484242121060531E+009;-1.211219768966854E+000;7.017688565519333E+000;
5.488244122061030E+009;-1.185494470160047E+000;4.168857776229927E-001;
5.492246123061531E+009;-1.189107388482406E+000;-6.139334721573100E+000;
5.496248124062031E+009;-1.157882994329384E+000;-1.319493030629570E+001;
5.500250125062532E+009;-1.116351333389646E+000;-2.017940323355214E+001;
5.504252126063031E+009;-1.105712382128302E+000;-2.752076200172244E+001;
5.508254127063532E+009;-1.068527460038716E+000;-3.477250227696999E+001;
5.512256128064032E+009;-1.116273113450857E+000;-4.269180244803435E+001;
5.516258129064532E+009;-1.135881473990922E+000;-5.064869865676567E+001;
5.520260130065033E+009;-1.184103860846771E+000;-5.926230560841196E+001;
5.524262131065533E+009;-1.238333271226509E+000;-6.813302643643635E+001;
5.528264132066033E+009;-1.294202664113223E+000;-7.755139852645387E+001;
5.532266133066533E+009;-1.345143579092295E+000;-8.671461710272915E+001;
5.536268134067034E+009;-1.480540672429924E+000;-9.716414748165762E+001;
5.540270135067534E+009;-1.510831071653568E+000;-1.080591955148059E+002;
5.544272136068034E+009;-1.630254986690359E+000;-1.188803579728131E+002;
5.548274137068534E+009;-1.731253404022729E+000;-1.304292186017665E+002;
5.552276138069035E+009;-1.893488696456010E+000;-1.421034796635376E+002;
5.556278139069534E+009;-1.952672456835263E+000;-1.541333812991713E+002;
5.560280140070035E+009;-1.991034310057594E+000;-1.665557181271818E+002;
5.564282141070536E+009;-2.021188674332914E+000;-1.780159792896537E+002;
5.568284142071035E+009;-2.039665710461522E+000;1.692864504762224E+002;
5.572286143071536E+009;-2.026105922529545E+000;1.574538809923622E+002;
5.576288144072036E+009;-1.976528533199796E+000;1.458103489752012E+002;
5.580290145072537E+009;-1.968374629311174E+000;1.349473745600667E+002;
5.584292146073036E+009;-1.919219290945720E+000;1.244107929993576E+002;
5.588294147073537E+009;-1.839320253109219E+000;1.137334652294821E+002;
5.592296148074038E+009;-1.764194331408363E+000;1.041250678887281E+002;
5.596298149074537E+009;-1.655953265149668E+000;9.493783981630791E+001;
5.600300150075037E+009;-1.562258292846493E+000;8.617225184821986E+001;
5.604302151075538E+009;-1.530662402574125E+000;7.778310500916163E+001;
5.608304152076038E+009;-1.494346649008755E+000;6.957843652926141E+001;
5.612306153076538E+009;-1.352543771555564E+000;6.204336279153858E+001;
5.616308154077039E+009;-1.349296938869293E+000;5.460635881066233E+001;
5.620310155077539E+009;-1.280970834352478E+000;4.761455145463871E+001;
5.624312156078039E+009;-1.227965725893250E+000;4.047869591113538E+001;
5.628314157078539E+009;-1.234302177601768E+000;3.336571592906865E+001;
5.632316158079040E+009;-1.188209351236805E+000;2.716115313632877E+001;
5.636318159079540E+009;-1.164017383842413E+000;2.020740115425687E+001;
5.640320160080040E+009;-1.149546881480623E+000;1.400923561409715E+001;
5.644322161080541E+009;-1.145189441798633E+000;7.811547681377103E+000;
5.648324162081040E+009;-1.178342430805899E+000;5.887803857738576E-001;
5.652326163081541E+009;-1.146246613055894E+000;-5.506237197264091E+000;
5.656328164082041E+009;-1.196375202163472E+000;-1.223822369546880E+001;
5.660330165082542E+009;-1.228432801771866E+000;-1.864271397569441E+001;
5.664332166083041E+009;-1.209197421573820E+000;-2.541059923443202E+001;
5.668334167083542E+009;-1.269212241829134E+000;-3.254281656938156E+001;
5.672336168084042E+009;-1.292415594247456E+000;-4.000313425140941E+001;
5.676338169084542E+009;-1.340869184235221E+000;-4.764832253605910E+001;
5.680340170085043E+009;-1.368330012901761E+000;-5.561476483781790E+001;
5.684342171085543E+009;-1.418450830691442E+000;-6.351309172533911E+001;
5.688344172086043E+009;-1.504947116796406E+000;-7.212891350062847E+001;
5.692346173086543E+009;-1.556140640443455E+000;-8.149194824381692E+001;
5.696348174087044E+009;-1.620049849311719E+000;-9.128361397518029E+001;
5.700350175087544E+009;-1.657593735972738E+000;-1.010846184882027E+002;
5.704352176088044E+009;-1.697503273570745E+000;-1.119587382376200E+002;
5.708354177088544E+009;-1.746930911083007E+000;-1.230659161608895E+002;
5.712356178089045E+009;-1.793482920413967E+000;-1.339466702035322E+002;
5.716358179089544E+009;-1.857680131694075E+000;-1.465858698776520E+002;
5.720360180090045E+009;-1.864430506132104E+000;-1.584745956356616E+002;
5.724362181090546E+009;-1.927183558024697E+000;-1.712390031711874E+002;
5.728364182091045E+009;-1.915097114901670E+000;1.760811830767445E+002;
5.732366183091546E+009;-1.901886147883889E+000;1.636675155751558E+002;
5.736368184092046E+009;-1.880807409283313E+000;1.515156890776976E+002;
5.740370185092547E+009;-1.868884308688831E+000;1.395245518168658E+002;
5.744372186093046E+009;-1.835522299759006E+000;1.281624365591289E+002;
5.748374187093547E+009;-1.803936978529953E+000;1.168883623167441E+002;
5.752376188094048E+009;-1.726153984882054E+000;1.064123052650056E+002;
5.756378189094547E+009;-1.742548392376949E+000;9.679927993606169E+001;
5.760380190095047E+009;-1.689579330151463E+000;8.695405571878096E+001;
5.764382191095548E+009;-1.667639179151774E+000;7.892937058269571E+001;
5.768384192096048E+009;-1.674491752592572E+000;6.999771316355881E+001;
5.772386193096548E+009;-1.588659892225834E+000;6.179963433703177E+001;
5.776388194097049E+009;-1.581051585404910E+000;5.384370252809039E+001;
5.780390195097549E+009;-1.564276328187413E+000;4.659944916170602E+001;
5.784392196098049E+009;-1.540513627506319E+000;3.954776260215571E+001;
5.788394197098549E+009;-1.478460386411551E+000;3.255606721479269E+001;
5.792396198099050E+009;-1.460433547086592E+000;2.598251800082378E+001;
5.796398199099550E+009;-1.426276298390919E+000;1.931428267327625E+001;
5.800400200100050E+009;-1.363496637927590E+000;1.305033437316882E+001;
5.804402201100551E+009;-1.411187716476510E+000;6.440238398750459E+000;
5.808404202101050E+009;-1.365849651711421E+000;7.975343672751364E-002;
5.812406203101551E+009;-1.318047050519067E+000;-6.178939876482633E+000;
5.816408204102051E+009;-1.293702708996825E+000;-1.245667721136192E+001;
5.820410205102552E+009;-1.271748948639379E+000;-1.895263507664357E+001;
5.824412206103051E+009;-1.246140485232685E+000;-2.597213134143086E+001;
5.828414207103552E+009;-1.264319929286342E+000;-3.239066167687896E+001;
5.832416208104052E+009;-1.255612157248055E+000;-3.946070574849307E+001;
5.836418209104552E+009;-1.208693772069016E+000;-4.646393310617406E+001;
5.840420210105053E+009;-1.229593478681645E+000;-5.411808408780501E+001;
5.844422211105553E+009;-1.239155822654221E+000;-6.163173204714273E+001;
5.848424212106053E+009;-1.227568000988976E+000;-6.995982244591257E+001;
5.852426213106553E+009;-1.281350868876427E+000;-7.819449930291137E+001;
5.856428214107054E+009;-1.296616268209007E+000;-8.714388093576194E+001;
5.860430215107554E+009;-1.304330708318877E+000;-9.637835289139088E+001;
5.864432216108054E+009;-1.396403473585141E+000;-1.063090961503750E+002;
5.868434217108554E+009;-1.446701292326008E+000;-1.163367068487266E+002;
5.872436218109055E+009;-1.586078292398921E+000;-1.273851840782921E+002;
5.876438219109554E+009;-1.689130335556809E+000;-1.389654373200175E+002;
5.880440220110055E+009;-1.764073112145919E+000;-1.508789129969054E+002;
5.884442221110556E+009;-1.798751872339464E+000;-1.626602394054580E+002;
5.888444222111055E+009;-1.909896936510263E+000;-1.747138322650272E+002;
5.892446223111556E+009;-2.008395538712410E+000;1.728961759658815E+002;
5.896448224112056E+009;-2.026606419189103E+000;1.604141767678784E+002;
5.900450225112557E+009;-2.084300541370752E+000;1.480942222277795E+002;
5.904452226113056E+009;-2.098880244142046E+000;1.359595368168639E+002;
5.908454227113557E+009;-2.056879956331734E+000;1.244605530161195E+002;
5.912456228114058E+009;-2.056731568610756E+000;1.137186015606362E+002;
5.916458229114557E+009;-2.011268407812196E+000;1.026305302918983E+002;
5.920460230115058E+009;-1.966281539773082E+000;9.225671668472711E+001;
5.924462231115558E+009;-1.856374478582187E+000;8.240256099210254E+001;
5.928464232116058E+009;-1.818065592527750E+000;7.308432219342349E+001;
5.932466233116558E+009;-1.729821170333155E+000;6.415800387861547E+001;
5.936468234117059E+009;-1.656386669816679E+000;5.606959601048914E+001;
5.940470235117559E+009;-1.596589548530001E+000;4.795020254456132E+001;
5.944472236118059E+009;-1.510038579042576E+000;4.025649894432971E+001;
5.948474237118559E+009;-1.458653789363344E+000;3.270677708412809E+001;
5.952476238119060E+009;-1.429672578850781E+000;2.576553387996833E+001;
5.956478239119560E+009;-1.354866722490991E+000;1.882330497054100E+001;
5.960480240120060E+009;-1.260400472739249E+000;1.184568120911074E+001;
5.964482241120561E+009;-1.286841523178067E+000;5.556725784027012E+000;
5.968484242121060E+009;-1.169080905272965E+000;-9.335280157313926E-001;
5.972486243121561E+009;-1.158266097792111E+000;-7.434957512342243E+000;
5.976488244122061E+009;-1.142591336949283E+000;-1.380431565228300E+001;
5.980490245122562E+009;-1.139166774599552E+000;-2.065886030735391E+001;
5.984492246123061E+009;-1.100498143636040E+000;-2.634420497430778E+001;
5.988494247123562E+009;-1.111073607584189E+000;-3.278028950216643E+001;
5.992496248124062E+009;-1.158361990249155E+000;-3.956202990457958E+001;
5.996498249124562E+009;-1.138142959715896E+000;-4.658291833208840E+001;
6.000500250125063E+009;-1.193919467706896E+000;-5.325777337459152E+001;
6.004502251125563E+009;-1.170874542266772E+000;-6.062129917555657E+001;
6.008504252126063E+009;-1.224131053095642E+000;-6.794746481507586E+001;
6.012506253126563E+009;-1.233790319392584E+000;-7.556365662337632E+001;
6.016508254127064E+009;-1.315704149185354E+000;-8.365269965352570E+001;
6.020510255127564E+009;-1.357698484463492E+000;-9.232360663208405E+001;
6.024512256128064E+009;-1.438518581149600E+000;-1.012131637090955E+002;
6.028514257128564E+009;-1.519905920895487E+000;-1.108001277418520E+002;
6.032516258129065E+009;-1.665560875447668E+000;-1.206910445651296E+002;
6.036518259129564E+009;-1.695089427287651E+000;-1.312777757126476E+002;
6.040520260130065E+009;-1.750716027684181E+000;-1.420813269212592E+002;
6.044522261130566E+009;-1.838813677035591E+000;-1.537467623565663E+002;
6.048524262131065E+009;-1.957451028271120E+000;-1.659337237749663E+002;
6.052526263131566E+009;-1.988159400808520E+000;-1.786173228098543E+002;
6.056528264132066E+009;-2.071125983910371E+000;1.687656165335645E+002;
6.060530265132567E+009;-2.121538511759816E+000;1.563978741694183E+002;
6.064532266133066E+009;-2.067652830102125E+000;1.436693536182122E+002;
6.068534267133567E+009;-2.070297395353829E+000;1.312322738967830E+002;
6.072536268134068E+009;-2.021168923631504E+000;1.192679860900441E+002;
6.076538269134567E+009;-1.996408318770635E+000;1.077175379114308E+002;
6.080540270135067E+009;-1.975037881699862E+000;9.633482233570967E+001;
6.084542271135568E+009;-1.893142270181879E+000;8.580210776633504E+001;
6.088544272136068E+009;-1.829308998330702E+000;7.596010940456574E+001;
6.092546273136568E+009;-1.775565195498107E+000;6.639620880333469E+001;
6.096548274137069E+009;-1.708916393633456E+000;5.742702536754567E+001;
6.100550275137569E+009;-1.634508427260972E+000;4.888305244247509E+001;
6.104552276138069E+009;-1.617241131795363E+000;4.086819360540604E+001;
6.108554277138569E+009;-1.510599446935692E+000;3.325179585475991E+001;
6.112556278139070E+009;-1.465415366782780E+000;2.582456689924201E+001;
