freq[Hz];re:Trc1_S22;im:Trc1_S22;
5.000000000000000E+009;8.389860987663269E-001;1.777856501375398E-001;
5.004002001000501E+009;8.641293644905090E-001;6.200247009574939E-002;
5.008004002001000E+009;8.629655241966248E-001;-4.086917319126600E-002;
5.012006003001501E+009;8.533223271369934E-001;-1.501600542677813E-001;
5.016008004002001E+009;8.307616114616394E-001;-2.632937045746526E-001;
5.020010005002502E+009;7.738233208656311E-001;-3.796626061565748E-001;
5.024012006003001E+009;7.161822915077210E-001;-5.004754182747797E-001;
5.028014007003502E+009;6.277695894241333E-001;-5.917638025515390E-001;
5.032016008004002E+009;5.197363495826721E-001;-6.916600323941043E-001;
5.036018009004502E+009;3.978888988494873E-001;-7.621769603703247E-001;
5.040020010005003E+009;2.586187720298767E-001;-8.187931837614699E-001;
5.044022011005503E+009;9.783267229795456E-002;-8.498529699288948E-001;
5.048024012006003E+009;-6.152541190385819E-002;-8.459185177679507E-001;
5.052026013006503E+009;-2.294252067804337E-001;-8.092018089546037E-001;
5.056028014007004E+009;-3.863180279731751E-001;-7.425951263760926E-001;
5.060030015007504E+009;-5.271779298782349E-001;-6.404909080951883E-001;
5.064032016008004E+009;-6.410580873489380E-001;-5.155129660792357E-001;
5.068034017008504E+009;-7.269349694252014E-001;-3.676248377331376E-001;
5.072036018009005E+009;-7.851961851119995E-001;-2.129309694763043E-001;
5.076038019009504E+009;-8.051387071609497E-001;-4.930710409104752E-002;
5.080040020010005E+009;-7.956112623214722E-001;1.095730553818388E-001;
5.084042021010506E+009;-7.582162022590637E-001;2.539642449760636E-001;
5.088044022011005E+009;-7.074530124664307E-001;3.912631082194422E-001;
5.092046023011506E+009;-6.255461573600769E-001;5.119334303291581E-001;
5.096048024012006E+009;-5.300571918487549E-001;6.172309078454514E-001;
5.100050025012507E+009;-4.267251789569855E-001;6.937569028385715E-001;
5.104052026013006E+009;-3.248862326145172E-001;7.633050143099774E-001;
5.108054027013507E+009;-2.060873657464981E-001;7.995183156114316E-001;
5.112056028014007E+009;-8.609322458505631E-002;8.250221627604759E-001;
5.116058029014507E+009;2.038374543190002E-002;8.441722374025226E-001;
5.120060030015008E+009;1.289955377578735E-001;8.406412929229659E-001;
5.124062031015508E+009;2.336728721857071E-001;8.253278062207021E-001;
5.128064032016008E+009;3.294577896595001E-001;7.954328886041223E-001;
5.132066033016508E+009;4.298073947429657E-001;7.576500915878605E-001;
5.136068034017009E+009;5.146009922027588E-001;7.021238546560279E-001;
5.140070035017509E+009;5.956668257713318E-001;6.388637415498726E-001;
5.144072036018009E+009;6.720321178436279E-001;5.684271861463360E-001;
5.148074037018509E+009;7.325783371925354E-001;4.919121987188955E-001;
5.152076038019010E+009;7.829307317733765E-001;4.014508258104296E-001;
5.156078039019509E+009;8.317233920097351E-001;3.036338902744261E-001;
5.160080040020010E+009;8.599179387092590E-001;2.068565125030280E-001;
5.164082041020511E+009;8.842385411262512E-001;1.058861859001738E-001;
5.168084042021010E+009;8.858208656311035E-001;-6.856515653270501E-003;
5.172086043021511E+009;8.750268816947937E-001;-1.188759105698052E-001;
5.176088044022011E+009;8.502200245857239E-001;-2.288947016300230E-001;
5.180090045022512E+009;8.033532500267029E-001;-3.389808752418843E-001;
5.184092046023011E+009;7.532055377960205E-001;-4.498646091896248E-001;
5.188094047023512E+009;6.644466519355774E-001;-5.505655794891244E-001;
5.192096048024012E+009;5.687031745910645E-001;-6.414007047331194E-001;
5.196098049024512E+009;4.540736079216003E-001;-7.152388104759963E-001;
5.200100050025013E+009;3.214656114578247E-001;-7.810866007309589E-001;
5.204102051025513E+009;1.748149245977402E-001;-8.160379243263889E-001;
5.208104052026013E+009;1.870500296354294E-002;-8.222649222252004E-001;
5.212106053026513E+009;-1.347252130508423E-001;-8.008969221040034E-001;
5.216108054027014E+009;-2.923183143138886E-001;-7.555799092087923E-001;
5.220110055027514E+009;-4.385696351528168E-001;-6.730017693206597E-001;
5.224112056028014E+009;-5.624123811721802E-001;-5.553746211013488E-001;
5.228114057028514E+009;-6.659613251686096E-001;-4.306401131618237E-001;
5.232116058029015E+009;-7.418440580368042E-001;-2.849456229531471E-001;
5.236118059029514E+009;-7.867094874382019E-001;-1.249035774463226E-001;
5.240120060030015E+009;-8.053319454193115E-001;3.448373257334531E-002;
5.244122061030516E+009;-7.841650843620300E-001;1.968653169019316E-001;
5.248124062031015E+009;-7.409819364547730E-001;3.429180288427781E-001;
5.252126063031516E+009;-6.631303429603577E-001;4.822752913549759E-001;
5.256128064032016E+009;-5.794485807418823E-001;5.962309602181134E-001;
5.260130065032517E+009;-4.729119837284088E-001;6.870164072569758E-001;
5.264132066033016E+009;-3.585425019264221E-001;7.597844677086513E-001;
5.268134067033517E+009;-2.409195303916931E-001;8.090254854770215E-001;
5.272136068034017E+009;-1.183398067951202E-001;8.421265171109573E-001;
5.276138069034517E+009;1.732455100864172E-003;8.585333109071026E-001;
5.280140070035017E+009;1.204223558306694E-001;8.510685030827802E-001;
5.284142071035518E+009;2.290038764476776E-001;8.351951221179118E-001;
5.288144072036018E+009;3.370180726051331E-001;7.956705994535439E-001;
5.292146073036518E+009;4.301927983760834E-001;7.482894495389214E-001;
5.296148074037019E+009;5.203993320465088E-001;6.942175070044255E-001;
5.300150075037519E+009;5.992709398269653E-001;6.296352647343345E-001;
5.304152076038019E+009;6.652168631553650E-001;5.552581044522904E-001;
5.308154077038519E+009;7.228730320930481E-001;4.726289778650948E-001;
5.312156078039020E+009;7.718133330345154E-001;3.864197517598315E-001;
5.316158079039520E+009;8.167992830276489E-001;2.935499493143565E-001;
5.320160080040020E+009;8.343582749366760E-001;1.972601678957996E-001;
5.324162081040521E+009;8.527554869651794E-001;9.857940796313336E-002;
5.328164082041020E+009;8.567184209823608E-001;-2.696880507773433E-003;
5.332166083041521E+009;8.517338037490845E-001;-9.862163387585191E-002;
5.336168084042021E+009;8.248988389968872E-001;-2.157275328038523E-001;
5.340170085042522E+009;7.907421588897705E-001;-3.191016855679206E-001;
5.344172086043021E+009;7.461000680923462E-001;-4.190244496566804E-001;
5.348174087043522E+009;6.764256358146668E-001;-5.072484993631508E-001;
5.352176088044022E+009;5.925241112709045E-001;-5.985324708131761E-001;
5.356178089044522E+009;4.939910471439362E-001;-6.817500829449493E-001;
5.360180090045023E+009;3.846281468868256E-001;-7.478272015987169E-001;
5.364182091045523E+009;2.544684410095215E-001;-8.020389512523902E-001;
5.368184092046023E+009;1.112049520015717E-001;-8.322868919439270E-001;
5.372186093046523E+009;-3.676807135343552E-002;-8.386523343918140E-001;
5.376188094047024E+009;-1.936736851930618E-001;-8.107001293256407E-001;
5.380190095047524E+009;-3.472879528999329E-001;-7.533841010544750E-001;
5.384192096048024E+009;-4.904666244983673E-001;-6.681768221787687E-001;
5.388194097048524E+009;-6.149581670761108E-001;-5.522419096144939E-001;
5.392196098049025E+009;-7.137052416801453E-001;-4.053580073212640E-001;
5.396198099049524E+009;-7.837806940078735E-001;-2.492628847990076E-001;
5.400200100050025E+009;-8.164786100387573E-001;-7.752180778584980E-002;
5.404202101050526E+009;-8.088231086730957E-001;9.371386438444668E-002;
5.408204102051025E+009;-7.699555754661560E-001;2.571630082161370E-001;
5.412206103051526E+009;-7.112734913825989E-001;4.003862157714663E-001;
5.416208104052026E+009;-6.219650506973267E-001;5.263797733034519E-001;
5.420210105052527E+009;-5.149027109146118E-001;6.300096403428300E-001;
5.424212106053026E+009;-3.992410004138947E-001;7.113837747296259E-001;
5.428214107053527E+009;-2.711689770221710E-001;7.713517314453212E-001;
5.432216108054027E+009;-1.454446911811829E-001;8.054697243599209E-001;
5.436218109054527E+009;-1.652521640062332E-002;8.201556551228924E-001;
5.440220110055028E+009;9.361265599727631E-002;8.172444638363308E-001;
5.444222111055528E+009;2.081030011177063E-001;7.936313322006205E-001;
5.448224112056028E+009;3.137920498847961E-001;7.662540501443336E-001;
5.452226113056528E+009;4.133581221103668E-001;7.240880642761275E-001;
5.456228114057029E+009;4.984984397888184E-001;6.780274507249562E-001;
5.460230115057529E+009;5.817766189575195E-001;6.076254059201813E-001;
5.464232116058029E+009;6.488735675811768E-001;5.391464968783389E-001;
5.468234117058529E+009;7.111200094223023E-001;4.668362087737646E-001;
5.472236118059030E+009;7.667782902717590E-001;3.776036847650485E-001;
5.476238119059530E+009;8.098099827766419E-001;2.939508196592463E-001;
5.480240120060030E+009;8.383653163909912E-001;2.027972705178300E-001;
5.484242121060531E+009;8.623883128166199E-001;1.083841872362329E-001;
5.488244122061030E+009;8.723241686820984E-001;6.018930234811468E-003;
5.492246123061531E+009;8.700659871101379E-001;-9.554002552281901E-002;
5.496248124062031E+009;8.565208911895752E-001;-1.966187730636861E-001;
5.500250125062532E+009;8.235629796981812E-001;-3.043641867442791E-001;
5.504252126063031E+009;7.839287519454956E-001;-4.079580896111730E-001;
5.508254127063532E+009;7.200949192047119E-001;-5.068408433103258E-001;
5.512256128064032E+009;6.474926471710205E-001;-5.945568548731555E-001;
5.516258129064532E+009;5.526494979858398E-001;-6.781513795756012E-001;
5.520260130065033E+009;4.433423578739166E-001;-7.493236926880901E-001;
5.524262131065533E+009;3.228019475936890E-001;-8.079538499248442E-001;
5.528264132066033E+009;1.875498145818710E-001;-8.390553253219015E-001;
5.532266133066533E+009;4.583616182208061E-002;-8.500417531110005E-001;
5.536268134067034E+009;-1.024824008345604E-001;-8.357393000783310E-001;
5.540270135067534E+009;-2.583274245262146E-001;-7.961050001841418E-001;
5.544272136068034E+009;-3.996252715587616E-001;-7.257230787767952E-001;
5.548274137068534E+009;-5.259103178977966E-001;-6.251794226538587E-001;
5.552276138069035E+009;-6.390326023101807E-001;-4.995917991062823E-001;
5.556278139069534E+009;-7.234758138656616E-001;-3.526838898786322E-001;
5.560280140070035E+009;-7.719017863273621E-001;-1.814564434155761E-001;
5.564282141070536E+009;-7.897220253944397E-001;-2.221898797126765E-002;
5.568284142071035E+009;-7.759341597557068E-001;1.438893823864260E-001;
5.572286143071536E+009;-7.303047180175781E-001;3.024852704369578E-001;
5.576288144072036E+009;-6.551356911659241E-001;4.472717454561526E-001;
5.580290145072537E+009;-5.611943006515503E-001;5.648872048418203E-001;
5.584292146073036E+009;-4.483675658702850E-001;6.650161709869844E-001;
5.588294147073537E+009;-3.270672559738159E-001;7.421247152479109E-001;
5.592296148074038E+009;-2.013481706380844E-001;7.923719049235092E-001;
5.596298149074537E+009;-7.157676666975021E-002;8.237786494488596E-001;
5.600300150075037E+009;6.113559380173683E-002;8.292486349797852E-001;
5.604302151075538E+009;1.807785183191299E-001;8.181502565950617E-001;
5.608304152076038E+009;2.922968566417694E-001;7.934398051332118E-001;
5.612306153076538E+009;4.007418751716614E-001;7.545830487039724E-001;
5.616308154077039E+009;4.992833435535431E-001;7.011326579867109E-001;
5.620310155077539E+009;5.854349732398987E-001;6.342557606304365E-001;
5.624312156078039E+009;6.588608622550964E-001;5.613593668695354E-001;
5.628314157078539E+009;7.250201702117920E-001;4.803393633275142E-001;
5.632316158079040E+009;7.785776257514954E-001;3.936758932310845E-001;
5.636318159079540E+009;8.174566626548767E-001;3.027098576248036E-001;
5.640320160080040E+009;8.492928743362427E-001;2.077580467812155E-001;
5.644322161080541E+009;8.650565743446350E-001;1.142291950247120E-001;
5.648324162081040E+009;8.713989257812500E-001;1.559882556204250E-002;
5.652326163081541E+009;8.730828166007996E-001;-8.542983415279337E-002;
5.656328164082041E+009;8.535717725753784E-001;-1.829499580593354E-001;
5.660330165082542E+009;8.229812383651733E-001;-2.822029733850893E-001;
5.664332166083041E+009;7.779687047004700E-001;-3.776498842612141E-001;
5.668334167083542E+009;7.285560965538025E-001;-4.656300861628270E-001;
5.672336168084042E+009;6.596603393554688E-001;-5.552463212155278E-001;
5.676338169084542E+009;5.821834802627564E-001;-6.327317926943555E-001;
5.680340170085043E+009;4.833219051361084E-001;-7.031383061638468E-001;
5.684342171085543E+009;3.698900938034058E-001;-7.558555979344865E-001;
5.688344172086043E+009;2.533497512340546E-001;-7.994102495135296E-001;
5.692346173086543E+009;1.248014047741890E-001;-8.243874071381045E-001;
5.696348174087044E+009;-1.481258310377598E-002;-8.273989747313822E-001;
5.700350175087544E+009;-1.601675152778626E-001;-8.142683682267585E-001;
5.704352176088044E+009;-3.067342936992645E-001;-7.660270212193986E-001;
5.708354177088544E+009;-4.438094496726990E-001;-6.871942631329501E-001;
5.712356178089045E+009;-5.663753747940064E-001;-5.796203020826913E-001;
5.716358179089544E+009;-6.743139028549194E-001;-4.453359824076527E-001;
5.720360180090045E+009;-7.504317760467529E-001;-2.951489880878782E-001;
5.724362181090546E+009;-7.952841520309448E-001;-1.228432693383764E-001;
5.728364182091045E+009;-7.991878986358643E-001;5.340917175239046E-002;
5.732366183091546E+009;-7.663216590881348E-001;2.265355351045125E-001;
5.736368184092046E+009;-7.042315602302551E-001;3.856333111416795E-001;
5.740370185092547E+009;-6.151025295257568E-001;5.244092777975561E-001;
5.744372186093046E+009;-4.957513809204102E-001;6.352093162313024E-001;
5.748374187093547E+009;-3.705033659934998E-001;7.214297584470467E-001;
5.752376188094048E+009;-2.304496914148331E-001;7.827963816199175E-001;
5.756378189094547E+009;-9.869517385959625E-002;8.133143455336168E-001;
5.760380190095047E+009;4.132094979286194E-002;8.178750976958377E-001;
5.764382191095548E+009;1.640646159648895E-001;8.139029361886141E-001;
5.768384192096048E+009;2.813430130481720E-001;7.779272892589993E-001;
5.772386193096548E+009;3.956857919692993E-001;7.332811543511358E-001;
5.776388194097049E+009;4.891241788864136E-001;6.748760332925670E-001;
5.780390195097549E+009;5.762113332748413E-001;6.073817638950549E-001;
5.784392196098049E+009;6.439484953880310E-001;5.329788900300432E-001;
5.788394197098549E+009;7.078952193260193E-001;4.533109268026546E-001;
5.792396198099050E+009;7.552914023399353E-001;3.727905519138152E-001;
5.796398199099550E+009;7.989264726638794E-001;2.802552191808670E-001;
5.800400200100050E+009;8.313911557197571E-001;1.913787546033629E-001;
5.804402201100551E+009;8.512585163116455E-001;9.962129919413360E-002;
5.808404202101050E+009;8.553826212882996E-001;4.091107617314982E-003;
5.812406203101551E+009;8.487662672996521E-001;-8.944722007467104E-002;
5.816408204102051E+009;8.393248319625855E-001;-1.869145174076534E-001;
5.820410205102552E+009;8.110634088516235E-001;-2.791961978542654E-001;
5.824412206103051E+009;7.749549150466919E-001;-3.760270223193708E-001;
5.828414207103552E+009;7.304983139038086E-001;-4.646582834064342E-001;
5.832416208104052E+009;6.656154394149780E-001;-5.504676185433509E-001;
5.836418209104552E+009;5.949166417121887E-001;-6.293569443261476E-001;
5.840420210105053E+009;5.079625844955444E-001;-7.020880910937281E-001;
5.844422211105553E+009;4.087759554386139E-001;-7.607988948858063E-001;
5.848424212106053E+009;2.999120950698853E-001;-8.111154400840032E-001;
5.852426213106553E+009;1.746086329221726E-001;-8.434603699480932E-001;
5.856428214107054E+009;4.145139083266258E-002;-8.624069032874661E-001;
5.860430215107554E+009;-1.000582277774811E-001;-8.535901023063579E-001;
5.864432216108054E+009;-2.361150979995728E-001;-8.143485943907820E-001;
5.868434217108554E+009;-3.810135424137116E-001;-7.548204277805523E-001;
5.872436218109055E+009;-5.116348266601563E-001;-6.629102533928549E-001;
5.876438219109554E+009;-6.204847693443298E-001;-5.405428979851293E-001;
5.880440220110055E+009;-7.119187116622925E-001;-4.025334815291275E-001;
5.884442221110556E+009;-7.731156349182129E-001;-2.442416334150268E-001;
5.888444222111055E+009;-8.018345236778259E-001;-6.839996700676644E-002;
5.892446223111556E+009;-7.951612472534180E-001;1.006585773229016E-001;
5.896448224112056E+009;-7.423245906829834E-001;2.671970656552021E-001;
5.900450225112557E+009;-6.709628105163574E-001;4.144829697908372E-001;
5.904452226113056E+009;-5.621116757392883E-001;5.443607004898051E-001;
5.908454227113557E+009;-4.469268918037415E-001;6.494236960395721E-001;
5.912456228114058E+009;-3.092504441738129E-001;7.259341382593484E-001;
5.916458229114557E+009;-1.708942204713821E-001;7.796987487797873E-001;
5.920460230115058E+009;-3.028753958642483E-002;7.993104582059178E-001;
5.924462231115558E+009;1.036006435751915E-001;7.984475157222579E-001;
5.928464232116058E+009;2.342184484004974E-001;7.779386572550614E-001;
5.932466233116558E+009;3.544042706489563E-001;7.411002556205790E-001;
5.936468234117059E+009;4.637609422206879E-001;6.851757777465668E-001;
5.940470235117559E+009;5.561068058013916E-001;6.213353684472089E-001;
5.944472236118059E+009;6.394875645637512E-001;5.403777765562073E-001;
5.948474237118559E+009;7.146119475364685E-001;4.598959814863100E-001;
5.952476238119060E+009;7.700191736221314E-001;3.718484782599061E-001;
5.956478239119560E+009;8.105987906455994E-001;2.779477928272496E-001;
5.960480240120060E+009;8.434006571769714E-001;1.798935272061499E-001;
5.964482241120561E+009;8.617037534713745E-001;8.326670449587675E-002;
5.968484242121060E+009;8.681039214134216E-001;-1.379123401938717E-002;
5.972486243121561E+009;8.649198412895203E-001;-1.155209904699281E-001;
5.976488244122061E+009;8.497421145439148E-001;-2.101901541139140E-001;
5.980490245122562E+009;8.201879262924194E-001;-3.032682477121563E-001;
5.984492246123061E+009;7.848315834999085E-001;-3.904954497172464E-001;
5.988494247123562E+009;7.352243661880493E-001;-4.746143865071680E-001;
5.992496248124062E+009;6.760537028312683E-001;-5.614082331678599E-001;
5.996498249124562E+009;6.044312119483948E-001;-6.380497614620424E-001;
6.000500250125063E+009;5.269793868064880E-001;-7.032803101306681E-001;
6.004502251125563E+009;4.308639764785767E-001;-7.589158034701579E-001;
6.008504252126063E+009;3.277945518493652E-001;-8.017624916794682E-001;
6.012506253126563E+009;2.158793509006500E-001;-8.374840360048537E-001;
6.016508254127064E+009;9.202202409505844E-002;-8.562696467755711E-001;
6.020510255127564E+009;-3.639292344450951E-002;-8.506295477468454E-001;
6.024512256128064E+009;-1.643583774566650E-001;-8.335484130184738E-001;
6.028514257128564E+009;-2.966298758983612E-001;-7.863347492502018E-001;
6.032516258129065E+009;-4.268348515033722E-001;-7.136383136490753E-001;
6.036518259129564E+009;-5.411489009857178E-001;-6.187549044020057E-001;
6.040520260130065E+009;-6.417654156684876E-001;-4.987768092298566E-001;
6.044522261130566E+009;-7.245305180549622E-001;-3.543641657688168E-001;
6.048524262131065E+009;-7.731884121894836E-001;-1.919486033947628E-001;
6.052526263131566E+009;-7.924073934555054E-001;-2.455325147399996E-002;
6.056528264132066E+009;-7.748191356658936E-001;1.501321328039857E-001;
6.060530265132567E+009;-7.231746315956116E-001;3.137882428925053E-001;
6.064532266133066E+009;-6.359839439392090E-001;4.649595372080111E-001;
6.068534267133567E+009;-5.219293832778931E-001;5.955374857400509E-001;
6.072536268134068E+009;-3.824911415576935E-001;6.898882646124539E-001;
6.076538269134567E+009;-2.375235706567764E-001;7.587502036322710E-001;
6.080540270135067E+009;-8.805222064256668E-002;7.951978875722987E-001;
6.084542271135568E+009;5.553336441516876E-002;8.033770525210110E-001;
6.088544272136068E+009;1.989474743604660E-001;7.858677841826646E-001;
6.092546273136568E+009;3.274462521076202E-001;7.501424857202744E-001;
6.096548274137069E+009;4.456466734409332E-001;6.923413196644970E-001;
6.100550275137569E+009;5.417000651359558E-001;6.209361935413817E-001;
6.104552276138069E+009;6.305836439132690E-001;5.441753773666319E-001;
6.108554277138569E+009;6.974453330039978E-001;4.578813022098579E-001;
6.112556278139070E+009;7.571998834609985E-001;3.679576228598060E-001;
6.116558279139570E+009;7.988393306732178E-001;2.740851102759892E-001;
6.120560280140070E+009;8.313921093940735E-001;1.752858623851804E-001;
